 (000.000000)  can0  464   [8]  10 00 00 1C 73 70 65 65   '....spee'
 (000.012505)  can0  401   [8]  1C 00 BD 00 63 00 4A 01   '....c.J.'
 (000.007726)  can0  464   [8]  20 64 20 78 20 20 20 30   ' d x   0'
 (000.020244)  can0  464   [8]  21 20 78 34 32 20 78 20   '! x42 x '
 (000.020205)  can0  464   [8]  22 20 20 30 20 78 33 31   '"  0 x31'
 (000.020229)  can0  464   [8]  23 35 20 78 00 00 00 00   '#5 x....'
 (000.333069)  can0  401   [8]  3B 00 D2 00 33 00 7E 01   ';...3.~.'
 (000.091869)  can0  464   [8]  10 00 00 1C 73 70 65 65   '....spee'
 (000.020218)  can0  464   [8]  20 64 20 78 20 20 20 30   ' d x   0'
 (000.020231)  can0  464   [8]  21 20 78 34 32 20 78 20   '! x42 x '
 (000.020249)  can0  464   [8]  22 20 20 30 20 78 33 31   '"  0 x31'
 (000.020227)  can0  464   [8]  23 35 20 78 00 00 00 00   '#5 x....'
 (000.235835)  can0  401   [8]  3B 00 D2 00 33 00 55 01   ';...3.U.'
 (000.189104)  can0  464   [8]  10 00 00 1C 73 70 65 65   '....spee'
 (000.020219)  can0  464   [8]  20 64 20 78 20 20 20 30   ' d x   0'
 (000.020231)  can0  464   [8]  21 20 78 34 32 20 78 20   '! x42 x '
 (000.020233)  can0  464   [8]  22 20 20 30 20 78 33 31   '"  0 x31'
 (000.020242)  can0  464   [8]  23 35 20 78 00 00 00 00   '#5 x....'
 (000.119753)  can0  401   [8]  9E 00 A2 00 82 00 70 01   '......p.'
 (000.305202)  can0  464   [8]  10 00 00 1C 73 70 65 65   '....spee'
 (000.020212)  can0  464   [8]  20 64 20 78 20 20 20 30   ' d x   0'
 (000.020228)  can0  464   [8]  21 20 78 34 32 20 78 20   '! x42 x '
 (000.020235)  can0  464   [8]  22 20 20 30 20 78 33 31   '"  0 x31'
 (000.020235)  can0  464   [8]  23 35 20 78 00 00 00 00   '#5 x....'
 (000.084020)  can0  401   [8]  E5 00 26 07 52 01 8F 01   '..&.R...'
 (000.340926)  can0  464   [8]  10 00 00 1C 73 70 65 65   '....spee'
 (000.020207)  can0  464   [8]  20 64 20 78 20 20 20 30   ' d x   0'
 (000.006180)  can0  401   [8]  31 00 BD 00 4E 02 51 01   '1...N.Q.'
 (000.014071)  can0  464   [8]  21 20 78 34 32 20 78 20   '! x42 x '
 (000.020253)  can0  464   [8]  22 20 20 30 20 78 33 31   '"  0 x31'
 (000.020231)  can0  464   [8]  23 35 20 78 00 00 00 00   '#5 x....'
 (000.306540)  can0  401   [8]  2D 00 AE 00 51 02 4B 01   '-...Q.K.'
 (000.118359)  can0  464   [8]  10 00 00 1C 73 70 65 65   '....spee'
 (000.020217)  can0  464   [8]  20 64 20 78 20 20 20 30   ' d x   0'
 (000.020225)  can0  464   [8]  21 20 78 34 32 20 78 20   '! x42 x '
 (000.020239)  can0  464   [8]  22 20 20 30 20 78 33 31   '"  0 x31'
 (000.020228)  can0  464   [8]  23 35 20 78 00 00 00 00   '#5 x....'
 (000.234059)  can0  401   [8]  F8 00 3E 07 3C 04 9E 01   '..>.<...'
 (000.190880)  can0  464   [8]  10 00 00 1C 73 70 65 65   '....spee'
 (000.020218)  can0  464   [8]  20 64 20 78 20 20 20 30   ' d x   0'
 (000.020227)  can0  464   [8]  21 20 78 34 32 20 78 20   '! x42 x '
 (000.020234)  can0  464   [8]  22 20 20 30 20 78 33 31   '"  0 x31'
 (000.020239)  can0  464   [8]  23 35 20 78 00 00 00 00   '#5 x....'
 (000.156523)  can0  401   [8]  22 00 B1 06 50 00 64 01   '"...P.d.'
 (000.268419)  can0  464   [8]  10 00 00 1C 73 70 65 65   '....spee'
 (000.020226)  can0  464   [8]  20 64 20 78 20 20 20 30   ' d x   0'
 (000.020216)  can0  464   [8]  21 20 78 34 32 20 78 20   '! x42 x '
 (000.020236)  can0  464   [8]  22 20 20 30 20 78 33 31   '"  0 x31'
 (000.020239)  can0  464   [8]  23 35 20 78 00 00 00 00   '#5 x....'
 (000.090335)  can0  401   [8]  E7 00 1D 07 50 00 A4 01   '....P...'
 (000.334610)  can0  464   [8]  10 00 00 1C 73 70 65 65   '....spee'
 (000.020212)  can0  464   [8]  20 64 20 78 20 20 20 30   ' d x   0'
 (000.020227)  can0  464   [8]  21 20 78 34 32 20 78 20   '! x42 x '
 (000.020233)  can0  464   [8]  22 20 20 30 20 78 33 31   '"  0 x31'
 (000.020281)  can0  464   [8]  23 35 20 78 00 00 00 00   '#5 x....'
 (000.041364)  can0  401   [8]  92 00 23 05 C4 04 85 01   '..#.....'
 (000.383553)  can0  464   [8]  10 00 00 1C 73 70 65 65   '....spee'
 (000.020201)  can0  464   [8]  20 64 20 78 20 20 20 30   ' d x   0'
 (000.019689)  can0  401   [8]  FB 00 41 07 37 03 94 01   '..A.7...'
 (000.000540)  can0  464   [8]  21 20 78 34 32 20 78 20   '! x42 x '
 (000.020263)  can0  464   [8]  22 20 20 30 20 78 33 31   '"  0 x31'
 (000.020206)  can0  464   [8]  23 35 20 78 00 00 00 00   '#5 x....'
 (000.424946)  can0  464   [8]  10 00 00 1C 73 70 65 65   '....spee'
 (000.015553)  can0  401   [8]  FB 00 39 07 3C 00 8B 01   '..9.<...'
 (000.004682)  can0  464   [8]  20 64 20 78 20 20 20 30   ' d x   0'
 (000.020265)  can0  464   [8]  21 20 78 34 32 20 78 20   '! x42 x '
 (000.020202)  can0  464   [8]  22 20 20 30 20 78 33 31   '"  0 x31'
 (000.020210)  can0  464   [8]  23 35 20 78 00 00 00 00   '#5 x....'
 (000.370429)  can0  401   [8]  00 00 E2 00 A9 02 A1 01   '........'
 (000.054521)  can0  464   [8]  10 00 00 1C 73 70 65 65   '....spee'
 (000.020252)  can0  464   [8]  20 64 20 78 20 20 20 30   ' d x   0'
 (000.020197)  can0  464   [8]  21 20 78 34 32 20 78 20   '! x42 x '
 (000.020210)  can0  464   [8]  22 20 20 30 20 78 33 31   '"  0 x31'
 (000.020238)  can0  464   [8]  23 35 20 78 00 00 00 00   '#5 x....'
 (000.301109)  can0  401   [8]  29 01 7D 03 90 00 6F 01   ').}...o.'
 (000.123828)  can0  464   [8]  10 00 00 1C 73 70 65 65   '....spee'
 (000.020216)  can0  464   [8]  20 64 20 78 20 20 31 32   ' d x  12'
 (000.020240)  can0  464   [8]  21 20 78 34 33 20 78 20   '! x43 x '
 (000.020223)  can0  464   [8]  22 20 20 30 20 78 33 31   '"  0 x31'
 (000.020240)  can0  464   [8]  23 35 20 78 00 00 00 00   '#5 x....'
 (000.181319)  can0  401   [8]  87 00 48 05 CB 00 63 01   '..H...c.'
 (000.244619)  can0  464   [8]  10 00 00 1C 73 70 65 65   '....spee'
 (000.020211)  can0  464   [8]  20 64 20 78 20 20 31 32   ' d x  12'
 (000.020228)  can0  464   [8]  21 20 78 34 34 20 78 20   '! x44 x '
 (000.020234)  can0  464   [8]  22 20 20 30 20 78 33 31   '"  0 x31'
 (000.020245)  can0  464   [8]  23 36 20 78 00 00 00 00   '#6 x....'
 (000.114575)  can0  401   [8]  1B 00 C3 00 63 00 A4 01   '....c...'
 (000.310361)  can0  464   [8]  10 00 00 1C 73 70 65 65   '....spee'
 (000.020203)  can0  464   [8]  20 64 20 78 20 20 32 34   ' d x  24'
 (000.020231)  can0  464   [8]  21 20 78 34 36 20 78 20   '! x46 x '
 (000.020234)  can0  464   [8]  22 20 20 30 20 78 33 31   '"  0 x31'
 (000.020240)  can0  464   [8]  23 37 20 78 00 00 00 00   '#7 x....'
 (000.128046)  can0  401   [8]  55 00 A4 00 32 03 BC 01   'U...2...'
 (000.297900)  can0  464   [8]  10 00 00 1C 73 70 65 65   '....spee'
 (000.020204)  can0  464   [8]  20 64 20 78 20 20 33 37   ' d x  37'
 (000.020226)  can0  464   [8]  21 20 78 34 39 20 78 20   '! x49 x '
 (000.020233)  can0  464   [8]  22 20 20 30 20 78 33 31   '"  0 x31'
 (000.020241)  can0  464   [8]  23 38 20 78 00 00 00 00   '#8 x....'
 (000.141905)  can0  401   [8]  AA 00 09 06 C0 06 EF 01   '........'
 (000.283045)  can0  464   [8]  10 00 00 1C 73 70 65 65   '....spee'
 (000.020202)  can0  464   [8]  20 64 20 78 20 20 31 32   ' d x  12'
 (000.020234)  can0  464   [8]  21 20 78 35 30 20 78 20   '! x50 x '
 (000.020220)  can0  464   [8]  22 20 20 30 20 78 33 31   '"  0 x31'
 (000.020239)  can0  464   [8]  23 38 20 78 00 00 00 00   '#8 x....'
 (000.425945)  can0  464   [8]  10 00 00 1C 73 70 65 65   '....spee'
 (000.020260)  can0  464   [8]  20 64 20 78 20 20 33 37   ' d x  37'
 (000.020201)  can0  464   [8]  21 20 78 35 33 20 78 20   '! x53 x '
 (000.020211)  can0  464   [8]  22 20 20 30 20 78 33 31   '"  0 x31'
 (000.020243)  can0  464   [8]  23 39 20 78 00 00 00 00   '#9 x....'
 (000.268222)  can0  401   [8]  0A 01 1F 07 3A 03 52 01   '....:.R.'
 (000.156699)  can0  464   [8]  10 00 00 1C 73 70 65 65   '....spee'
 (000.020228)  can0  464   [8]  20 64 20 78 20 20 32 34   ' d x  24'
 (000.020221)  can0  464   [8]  21 20 78 35 35 20 78 20   '! x55 x '
 (000.020235)  can0  464   [8]  22 20 20 30 20 78 33 32   '"  0 x32'
 (000.021243)  can0  464   [8]  23 30 20 78 00 00 00 00   '#0 x....'
 (000.202163)  can0  401   [8]  2D 00 A6 00 4B 03 A3 01   '-...K...'
 (000.223765)  can0  464   [8]  10 00 00 1C 73 70 65 65   '....spee'
 (000.020225)  can0  464   [8]  20 64 20 78 20 20 32 34   ' d x  24'
 (000.021226)  can0  464   [8]  21 20 78 35 37 20 78 20   '! x57 x '
 (000.020232)  can0  464   [8]  22 20 20 30 20 78 33 32   '"  0 x32'
 (000.020239)  can0  464   [8]  23 33 20 78 00 00 00 00   '#3 x....'
 (000.171331)  can0  401   [8]  31 00 24 01 ED 00 89 01   '1.$.....'
 (000.254598)  can0  464   [8]  10 00 00 1C 73 70 65 65   '....spee'
 (000.020218)  can0  464   [8]  20 64 20 78 20 20 31 32   ' d x  12'
 (000.020232)  can0  464   [8]  21 20 78 35 38 20 78 20   '! x58 x '
 (000.020233)  can0  464   [8]  22 20 20 30 20 78 33 32   '"  0 x32'
 (000.020273)  can0  464   [8]  23 35 20 78 00 00 00 00   '#5 x....'
 (000.424376)  can0  401   [8]  60 00 2B 07 50 00 5E 01   '`.+.P.^.'
 (000.000514)  can0  464   [8]  10 00 00 1C 73 70 65 65   '....spee'
 (000.020267)  can0  464   [8]  20 64 20 78 20 20 31 32   ' d x  12'
 (000.020218)  can0  464   [8]  21 20 78 35 39 20 78 20   '! x59 x '
 (000.020211)  can0  464   [8]  22 20 20 30 20 78 33 32   '"  0 x32'
 (000.020236)  can0  464   [8]  23 36 20 78 00 00 00 00   '#6 x....'
 (000.318701)  can0  401   [8]  DA 00 50 04 B7 00 7C 01   '..P...|.'
 (000.106234)  can0  464   [8]  10 00 00 1C 73 70 65 65   '....spee'
 (000.020201)  can0  464   [8]  20 64 20 78 20 20 20 30   ' d x   0'
 (000.020226)  can0  464   [8]  21 20 78 35 39 20 78 20   '! x59 x '
 (000.020239)  can0  464   [8]  22 20 20 30 20 78 33 32   '"  0 x32'
 (000.020239)  can0  464   [8]  23 36 20 78 00 00 00 00   '#6 x....'
 (000.255379)  can0  401   [8]  29 00 63 00 E5 00 68 01   ').c...h.'
 (000.169551)  can0  464   [8]  10 00 00 1C 73 70 65 65   '....spee'
 (000.020213)  can0  464   [8]  20 64 20 78 20 20 20 30   ' d x   0'
 (000.020222)  can0  464   [8]  21 20 78 35 39 20 78 20   '! x59 x '
 (000.020231)  can0  464   [8]  22 20 20 30 20 78 33 32   '"  0 x32'
 (000.020244)  can0  464   [8]  23 36 20 78 00 00 00 00   '#6 x....'
 (000.188566)  can0  401   [8]  CD 00 6E 05 6A 00 A5 01   '..n.j...'
 (000.236349)  can0  464   [8]  10 00 00 1C 73 70 65 65   '....spee'
 (000.020219)  can0  464   [8]  20 64 20 78 20 20 20 30   ' d x   0'
 (000.020232)  can0  464   [8]  21 20 78 35 39 20 78 20   '! x59 x '
 (000.020253)  can0  464   [8]  22 20 20 30 20 78 33 32   '"  0 x32'
 (000.020219)  can0  464   [8]  23 36 20 78 00 00 00 00   '#6 x....'
 (000.123994)  can0  401   [8]  D1 00 39 02 D5 00 79 01   '..9...y.'
 (000.300931)  can0  464   [8]  10 00 00 1C 73 70 65 65   '....spee'
 (000.020214)  can0  464   [8]  20 64 20 78 20 20 20 30   ' d x   0'
 (000.020227)  can0  464   [8]  21 20 78 35 39 20 78 20   '! x59 x '
 (000.020230)  can0  464   [8]  22 20 20 30 20 78 33 32   '"  0 x32'
 (000.020239)  can0  464   [8]  23 36 20 78 00 00 00 00   '#6 x....'
 (000.424921)  can0  464   [8]  10 00 00 1C 73 70 65 65   '....spee'
 (000.020214)  can0  464   [8]  20 64 20 78 20 20 20 30   ' d x   0'
 (000.020233)  can0  464   [8]  21 20 78 35 39 20 78 20   '! x59 x '
 (000.020264)  can0  464   [8]  22 20 20 30 20 78 33 32   '"  0 x32'
 (000.020261)  can0  464   [8]  23 36 20 78 00 00 00 00   '#6 x....'
 (000.012545)  can0  401   [8]  30 00 BA 00 51 05 7A 01   '0...Q.z.'
 (000.412348)  can0  464   [8]  10 00 00 1C 73 70 65 65   '....spee'
 (000.020198)  can0  464   [8]  20 64 20 78 20 20 20 30   ' d x   0'
 (000.008933)  can0  401   [8]  D8 00 F7 01 66 00 A0 01   '....f...'
 (000.011340)  can0  464   [8]  21 20 78 35 39 20 78 20   '! x59 x '
 (000.020196)  can0  464   [8]  22 20 20 30 20 78 33 32   '"  0 x32'
 (000.020233)  can0  464   [8]  23 36 20 78 00 00 00 00   '#6 x....'
