Script started on Tue Nov  1 07:21:15 2016
]0;pi@raspberrypi: ~[01;32mpi@raspberrypi[00m [01;34m~ $[00m can-utils/candump -atd can0
 (000.000000)  can0  46C   [8]  10 00 00 17 C0 00 00 00   '........'
 (000.020183)  can0  46C   [8]  20 07 44 69 73 74 50 75   ' .DistPu'
 (000.020191)  can0  46C   [8]  21 62 00 00 00 07 32 32   '!b....22'
 (000.020215)  can0  46C   [8]  22 34 20 31 30 39 00 00   '"4 109..'
 (000.014074)  can0  464   [8]  10 00 00 19 73 70 65 65   '....spee'
 (000.020269)  can0  464   [8]  20 64 20 78 20 20 20 30   ' d x   0'
 (000.020211)  can0  464   [8]  21 20 78 30 20 78 20 20   '! x0 x  '
 (000.020234)  can0  464   [8]  22 20 30 20 78 30 20 78   '" 0 x0 x'
 (000.086940)  can0  46C   [8]  10 00 00 17 C0 00 00 00   '........'
 (000.020193)  can0  46C   [8]  20 07 44 69 73 74 50 75   ' .DistPu'
 (000.020277)  can0  46C   [8]  21 62 00 00 00 07 32 32   '!b....22'
 (000.020275)  can0  46C   [8]  22 35 20 31 30 38 00 00   '"5 108..'
 (000.161633)  can0  46C   [8]  10 00 00 17 C0 00 00 00   '........'
 (000.020167)  can0  46C   [8]  20 07 44 69 73 74 50 75   ' .DistPu'
 (000.020184)  can0  46C   [8]  21 62 00 00 00 07 32 32   '!b....22'
 (000.020225)  can0  46C   [8]  22 36 20 31 30 38 00 00   '"6 108..'
 (000.075353)  can0  464   [8]  10 00 00 19 73 70 65 65   '....spee'
 (000.020232)  can0  464   [8]  20 64 20 78 20 20 20 30   ' d x   0'
 (000.020235)  can0  464   [8]  21 20 78 30 20 78 20 20   '! x0 x  '
 (000.020235)  can0  464   [8]  22 20 30 20 78 30 20 78   '" 0 x0 x'
 (000.045909)  can0  46C   [8]  10 00 00 17 C0 00 00 00   '........'
 (000.020160)  can0  46C   [8]  20 07 44 69 73 74 50 75   ' .DistPu'
 (000.020251)  can0  46C   [8]  21 62 00 00 00 07 32 32   '!b....22'
 (000.020171)  can0  46C   [8]  22 37 20 31 30 38 00 00   '"7 108..'
 (000.161743)  can0  46C   [8]  10 00 00 17 C0 00 00 00   '........'
 (000.020206)  can0  46C   [8]  20 07 44 69 73 74 50 75   ' .DistPu'
 (000.020174)  can0  46C   [8]  21 62 00 00 00 07 32 32   '!b....22'
 (000.020212)  can0  46C   [8]  22 38 20 31 30 38 00 00   '"8 108..'
 (000.116427)  can0  464   [8]  10 00 00 19 73 70 65 65   '....spee'
 (000.020256)  can0  464   [8]  20 64 20 78 20 20 20 30   ' d x   0'
 (000.020172)  can0  464   [8]  21 20 78 30 20 78 20 20   '! x0 x  '
 (000.004849)  can0  46C   [8]  10 00 00 17 C0 00 00 00   '........'
 (000.015387)  can0  464   [8]  22 20 30 20 78 30 20 78   '" 0 x0 x'
 (000.004810)  can0  46C   [8]  20 07 44 69 73 74 50 75   ' .DistPu'
 (000.020222)  can0  46C   [8]  21 62 00 00 00 07 32 32   '!b....22'
 (000.020215)  can0  46C   [8]  22 39 20 31 30 39 00 00   '"9 109..'
 (000.181984)  can0  46C   [8]  10 00 00 17 C0 00 00 00   '........'
 (000.020130)  can0  46C   [8]  20 07 44 69 73 74 50 75   ' .DistPu'
 (000.020221)  can0  46C   [8]  21 62 00 00 00 07 32 33   '!b....23'
 (000.020209)  can0  46C   [8]  22 30 20 31 30 38 00 00   '"0 108..'
 (000.121319)  can0  461   [8]  07 00 00 00 6D 31 30 39   '....m109'
 (000.036138)  can0  464   [8]  10 00 00 19 73 70 65 65   '....spee'
 (000.004387)  can0  46C   [8]  10 00 00 17 C0 00 00 00   '........'
 (000.015824)  can0  464   [8]  20 64 20 78 20 20 20 30   ' d x   0'
 (000.004242)  can0  46C   [8]  20 07 44 69 73 74 50 75   ' .DistPu'
 (000.015990)  can0  464   [8]  21 20 78 30 20 78 20 20   '! x0 x  '
 (000.004222)  can0  46C   [8]  21 62 00 00 00 07 32 33   '!b....23'
 (000.016010)  can0  464   [8]  22 20 30 20 78 30 20 78   '" 0 x0 x'
 (000.004215)  can0  46C   [8]  22 31 20 31 30 39 00 00   '"1 109..'
 (000.161755)  can0  46C   [8]  10 00 00 17 C0 00 00 00   '........'
 (000.020154)  can0  46C   [8]  20 07 44 69 73 74 50 75   ' .DistPu'
 (000.020245)  can0  46C   [8]  21 62 00 00 00 07 32 33   '!b....23'
 (000.020202)  can0  46C   [8]  22 32 20 31 30 39 00 00   '"2 109..'
 (000.181929)  can0  46C   [8]  10 00 00 17 C0 00 00 00   '........'
 (000.020171)  can0  46C   [8]  20 07 44 69 73 74 50 75   ' .DistPu'
 (000.016542)  can0  464   [8]  10 00 00 19 73 70 65 65   '....spee'
 (000.003685)  can0  46C   [8]  21 62 00 00 00 07 32 33   '!b....23'
 (000.016562)  can0  464   [8]  20 64 20 78 20 20 20 30   ' d x   0'
 (000.003662)  can0  46C   [8]  22 33 20 31 30 39 00 00   '"3 109..'
 (000.016574)  can0  464   [8]  21 20 78 30 20 78 20 20   '! x0 x  '
 (000.020239)  can0  464   [8]  22 20 30 20 78 30 20 78   '" 0 x0 x'
 (000.080999)  can0  464   [8]  10 00 00 24 C0 00 00 00   '...$....'
 (000.020225)  can0  464   [8]  20 03 61 64 63 00 00 00   ' .adc...'
 (000.020213)  can0  464   [8]  21 18 37 2E 37 32 34 33   '!.7.7243'
 (000.003443)  can0  46C   [8]  10 00 00 17 C0 00 00 00   '........'
 (000.016779)  can0  464   [8]  22 20 37 2E 37 39 33 32   '" 7.7932'
 (000.003406)  can0  46C   [8]  20 07 44 69 73 74 50 75   ' .DistPu'
 (000.016825)  can0  464   [8]  23 32 39 35 32 33 35 37   '#2952357'
 (000.003399)  can0  46C   [8]  21 62 00 00 00 07 32 33   '!b....23'
 (000.016862)  can0  464   [8]  24 39 31 38 38 35 00 00   '$91885..'
 (000.003342)  can0  46C   [8]  22 34 20 31 31 30 00 00   '"4 110..'
 (000.161756)  can0  46C   [8]  10 00 00 17 C0 00 00 00   '........'
 (000.020184)  can0  46C   [8]  20 07 44 69 73 74 50 75   ' .DistPu'
 (000.020185)  can0  46C   [8]  21 62 00 00 00 07 32 33   '!b....23'
 (000.020209)  can0  46C   [8]  22 35 20 31 30 39 00 00   '"5 109..'
 (000.037425)  can0  464   [8]  10 00 00 19 73 70 65 65   '....spee'
 (000.020230)  can0  464   [8]  20 64 20 78 20 20 20 30   ' d x   0'
 (000.020238)  can0  464   [8]  21 20 78 30 20 78 20 20   '! x0 x  '
 (000.020265)  can0  464   [8]  22 20 30 20 78 30 20 78   '" 0 x0 x'
 (000.063590)  can0  46C   [8]  10 00 00 17 C0 00 00 00   '........'
 (000.020199)  can0  46C   [8]  20 07 44 69 73 74 50 75   ' .DistPu'
 (000.020193)  can0  46C   [8]  21 62 00 00 00 07 32 33   '!b....23'
 (000.020207)  can0  46C   [8]  22 36 20 31 30 38 00 00   '"6 108..'
 (000.161773)  can0  46C   [8]  10 00 00 17 C0 00 00 00   '........'
 (000.020136)  can0  46C   [8]  20 07 44 69 73 74 50 75   ' .DistPu'
 (000.020212)  can0  46C   [8]  21 62 00 00 00 07 32 33   '!b....23'
 (000.020211)  can0  46C   [8]  22 37 20 31 30 39 00 00   '"7 109..'
 (000.098685)  can0  464   [8]  10 00 00 19 73 70 65 65   '....spee'
 (000.020253)  can0  464   [8]  20 64 20 78 20 20 20 30   ' d x   0'
 (000.020207)  can0  464   [8]  21 20 78 30 20 78 20 20   '! x0 x  '
 (000.020233)  can0  464   [8]  22 20 30 20 78 30 20 78   '" 0 x0 x'
 (000.002336)  can0  46C   [8]  10 00 00 17 C0 00 00 00   '........'
 (000.020197)  can0  46C   [8]  20 07 44 69 73 74 50 75   ' .DistPu'
 (000.020263)  can0  46C   [8]  21 62 00 00 00 07 32 33   '!b....23'
 (000.020249)  can0  46C   [8]  22 38 20 31 30 39 00 00   '"8 109..'
 (000.181964)  can0  46C   [8]  10 00 00 17 C0 00 00 00   '........'
 (000.020070)  can0  46C   [8]  20 07 44 69 73 74 50 75   ' .DistPu'
 (000.020210)  can0  46C   [8]  21 62 00 00 00 07 32 33   '!b....23'
 (000.020210)  can0  46C   [8]  22 39 20 31 30 38 00 00   '"9 108..'
 (000.139755)  can0  464   [8]  10 00 00 19 73 70 65 65   '....spee'
 (000.001768)  can0  461   [8]  07 00 00 00 6D 31 30 39   '....m109'
 (000.018438)  can0  464   [8]  20 64 20 78 20 20 20 30   ' d x   0'
 (000.001763)  can0  46C   [8]  10 00 00 17 C0 00 00 00   '........'
 (000.018487)  can0  464   [8]  21 20 78 30 20 78 20 20   '! x0 x  '
 (000.001703)  can0  46C   [8]  20 07 44 69 73 74 50 75   ' .DistPu'
 (000.018527)  can0  464   [8]  22 20 30 20 78 30 20 78   '" 0 x0 x'
 (000.001695)  can0  46C   [8]  21 62 00 00 00 07 32 34   '!b....24'
 (000.020422)  can0  46C   [8]  22 30 20 31 30 38 00 00   '"0 108..'
 (000.181767)  can0  46C   [8]  10 00 00 17 C0 00 00 00   '........'
 (000.020195)  can0  46C   [8]  20 07 44 69 73 74 50 75   ' .DistPu'
 (000.020189)  can0  46C   [8]  21 62 00 00 00 07 32 34   '!b....24'
 (000.020181)  can0  46C   [8]  22 31 20 31 30 39 00 00   '"1 109..'
 (000.160590)  can0  464   [8]  10 00 00 23 C0 00 00 00   '...#....'
 (000.001158)  can0  46C   [8]  10 00 00 17 C0 00 00 00   '........'
 (000.019052)  can0  464   [8]  20 03 61 64 63 00 00 00   ' .adc...'
 (000.001105)  can0  46C   [8]  20 07 44 69 73 74 50 75   ' .DistPu'
 (000.019106)  can0  464   [8]  21 17 37 2E 38 30 34 38   '!.7.8048'
 (000.001117)  can0  46C   [8]  21 62 00 00 00 07 32 34   '!b....24'
 (000.019115)  can0  464   [8]  22 20 37 2E 37 39 34 33   '" 7.7943'
 (000.001098)  can0  46C   [8]  22 32 20 31 30 39 00 00   '"2 109..'
 (000.019189)  can0  464   [8]  23 38 36 35 37 31 32 32   '#8657122'
 (000.020220)  can0  464   [8]  24 31 32 37 38 35 00 00   '$12785..'
 (000.122344)  can0  46C   [8]  10 00 00 17 C0 00 00 00   '........'
 (000.020175)  can0  46C   [8]  20 07 44 69 73 74 50 75   ' .DistPu'
 (000.020192)  can0  46C   [8]  21 62 00 00 00 07 32 34   '!b....24'
 (000.020204)  can0  46C   [8]  22 33 20 31 31 30 00 00   '"3 110..'
 (000.161739)  can0  46C   [8]  10 00 00 17 C0 00 00 00   '........'
 (000.020167)  can0  46C   [8]  20 07 44 69 73 74 50 75   ' .DistPu'
 (000.020260)  can0  46C   [8]  21 62 00 00 00 07 32 34   '!b....24'
 (000.020192)  can0  46C   [8]  22 34 20 31 30 39 00 00   '"4 109..'
 (000.019717)  can0  464   [8]  10 00 00 19 73 70 65 65   '....spee'
 (000.020221)  can0  464   [8]  20 64 20 78 20 20 20 30   ' d x   0'
 (000.020235)  can0  464   [8]  21 20 78 30 20 78 20 20   '! x0 x  '
 (000.020288)  can0  464   [8]  22 20 30 20 78 30 20 78   '" 0 x0 x'
 (000.081264)  can0  46C   [8]  10 00 00 17 C0 00 00 00   '........'
 (000.020175)  can0  46C   [8]  20 07 44 69 73 74 50 75   ' .DistPu'
 (000.020232)  can0  46C   [8]  21 62 00 00 00 07 32 34   '!b....24'
 (000.020195)  can0  46C   [8]  22 35 20 31 30 39 00 00   '"5 109..'
 (000.161728)  can0  46C   [8]  10 00 00 15 C0 00 00 00   '........'
 (000.020184)  can0  46C   [8]  20 07 44 69 73 74 50 75   ' .DistPu'
 (000.020232)  can0  46C   [8]  21 62 00 00 00 05 32 34   '!b....24'
 (000.020195)  can0  46C   [8]  22 36 20 38 30 39 00 00   '"6 809..'
 (000.080952)  can0  464   [8]  10 00 00 19 73 70 65 65   '....spee'
 (000.020231)  can0  464   [8]  20 64 20 78 20 20 20 30   ' d x   0'
 (000.020232)  can0  464   [8]  21 20 78 30 20 78 20 20   '! x0 x  '
 (000.020236)  can0  464   [8]  22 20 30 20 78 30 20 78   '" 0 x0 x'
 (000.040301)  can0  46C   [8]  10 00 00 17 C0 00 00 00   '........'
 (000.020261)  can0  46C   [8]  20 07 44 69 73 74 50 75   ' .DistPu'
 (000.020144)  can0  46C   [8]  21 62 00 00 00 07 32 34   '!b....24'
 (000.020186)  can0  46C   [8]  22 37 20 31 33 33 00 00   '"7 133..'
 (000.161742)  can0  46C   [8]  10 00 00 15 C0 00 00 00   '........'
 (000.020186)  can0  46C   [8]  20 07 44 69 73 74 50 75   ' .DistPu'
 (000.020222)  can0  46C   [8]  21 62 00 00 00 05 32 34   '!b....24'
 (000.020194)  can0  46C   [8]  22 38 20 37 33 33 00 00   '"8 733..'
 (000.122000)  can0  464   [8]  10 00 00 19 73 70 65 65   '....spee'
 (000.019513)  can0  461   [8]  05 00 00 00 6D 33 00 00   '....m3..'
 (000.001100)  can0  464   [8]  20 64 20 78 20 20 31 32   ' d x  12'
 (000.019100)  can0  46C   [8]  10 00 00 15 C0 00 00 00   '........'
 (000.000744)  can0  464   [8]  21 20 78 31 20 78 20 20   '! x1 x  '
 (000.019476)  can0  46C   [8]  20 07 44 69 73 74 50 75   ' .DistPu'
 (000.000771)  can0  464   [8]  22 20 30 20 78 30 20 78   '" 0 x0 x'
 (000.019457)  can0  46C   [8]  21 62 00 00 00 05 32 34   '!b....24'
 (000.020184)  can0  46C   [8]  22 39 20 33 33 33 00 00   '"9 333..'
 (000.161730)  can0  46C   [8]  10 00 00 15 C0 00 00 00   '........'
 (000.020174)  can0  46C   [8]  20 07 44 69 73 74 50 75   ' .DistPu'
 (000.020214)  can0  46C   [8]  21 62 00 00 00 05 32 35   '!b....25'
 (000.020330)  can0  46C   [8]  22 30 20 33 33 33 00 00   '"0 333..'
 (000.021250)  can0  464   [8]  10 00 00 23 C0 00 00 00   '...#....'
 (000.020223)  can0  464   [8]  20 03 61 64 63 00 00 00   ' .adc...'
 (000.020223)  can0  464   [8]  21 17 37 2E 38 32 35 20   '!.7.825 '
 (000.020231)  can0  464   [8]  22 37 2E 37 39 37 34 34   '"7.79744'
 (000.020229)  can0  464   [8]  23 37 39 31 34 30 39 39   '#7914099'
 (000.020249)  can0  464   [8]  24 31 34 32 38 35 00 00   '$14285..'
 (000.059422)  can0  46C   [8]  10 00 00 15 C0 00 00 00   '........'
 (000.001313)  can0  464   [8]  10 00 00 19 73 70 65 65   '....spee'
 (000.018921)  can0  46C   [8]  20 07 44 69 73 74 50 75   ' .DistPu'
 (000.001302)  can0  464   [8]  20 64 20 78 20 20 20 30   ' d x   0'
 (000.018851)  can0  46C   [8]  21 62 00 00 00 05 32 35   '!b....25'
 (000.001378)  can0  464   [8]  21 20 78 31 20 78 20 20   '! x1 x  '
 (000.018826)  can0  46C   [8]  22 31 20 33 33 33 00 00   '"1 333..'
 (000.001416)  can0  464   [8]  22 20 30 20 78 30 20 78   '" 0 x0 x'
 (000.160327)  can0  46C   [8]  10 00 00 15 C0 00 00 00   '........'
 (000.020219)  can0  46C   [8]  20 07 44 69 73 74 50 75   ' .DistPu'
 (000.020246)  can0  46C   [8]  21 62 00 00 00 05 32 35   '!b....25'
 (000.020148)  can0  46C   [8]  22 32 20 34 33 33 00 00   '"2 433..'
 (000.161716)  can0  46C   [8]  10 00 00 15 C0 00 00 00   '........'
 (000.020174)  can0  46C   [8]  20 07 44 69 73 74 50 75   ' .DistPu'
 (000.020224)  can0  46C   [8]  21 62 00 00 00 05 32 35   '!b....25'
 (000.020237)  can0  46C   [8]  22 33 20 34 33 33 00 00   '"3 433..'
 (000.001944)  can0  464   [8]  10 00 00 19 73 70 65 65   '....spee'
 (000.020226)  can0  464   [8]  20 64 20 78 20 20 20 30   ' d x   0'
 (000.020223)  can0  464   [8]  21 20 78 31 20 78 20 20   '! x1 x  '
 (000.020247)  can0  464   [8]  22 20 30 20 78 31 20 78   '" 0 x1 x'
 (000.099074)  can0  46C   [8]  10 00 00 15 C0 00 00 00   '........'
 (000.020175)  can0  46C   [8]  20 07 44 69 73 74 50 75   ' .DistPu'
 (000.020219)  can0  46C   [8]  21 62 00 00 00 05 32 35   '!b....25'
 (000.020276)  can0  46C   [8]  22 34 20 34 33 33 00 00   '"4 433..'
 (000.161672)  can0  46C   [8]  10 00 00 15 C0 00 00 00   '........'
 (000.020205)  can0  46C   [8]  20 07 44 69 73 74 50 75   ' .DistPu'
 (000.020238)  can0  46C   [8]  21 62 00 00 00 05 32 35   '!b....25'
 (000.020187)  can0  46C   [8]  22 35 20 33 33 33 00 00   '"5 333..'
 (000.063200)  can0  464   [8]  10 00 00 19 73 70 65 65   '....spee'
 (000.020205)  can0  464   [8]  20 64 20 78 20 20 20 30   ' d x   0'
 (000.020228)  can0  464   [8]  21 20 78 31 20 78 20 20   '! x1 x  '
 (000.020234)  can0  464   [8]  22 20 30 20 78 31 20 78   '" 0 x1 x'
 (000.058041)  can0  46C   [8]  10 00 00 15 C0 00 00 00   '........'
 (000.020169)  can0  46C   [8]  20 07 44 69 73 74 50 75   ' .DistPu'
 (000.020233)  can0  46C   [8]  21 62 00 00 00 05 32 35   '!b....25'
 (000.020204)  can0  46C   [8]  22 36 20 35 33 33 00 00   '"6 533..'
 (000.161749)  can0  46C   [8]  10 00 00 17 C0 00 00 00   '........'
 (000.020167)  can0  46C   [8]  20 07 44 69 73 74 50 75   ' .DistPu'
 (000.020204)  can0  46C   [8]  21 62 00 00 00 07 32 35   '!b....25'
 (000.020225)  can0  46C   [8]  22 37 20 31 33 34 00 00   '"7 134..'
 (000.104235)  can0  464   [8]  10 00 00 19 73 70 65 65   '....spee'
 (000.020237)  can0  464   [8]  20 64 20 78 20 20 20 30   ' d x   0'
 (000.017035)  can0  461   [8]  10 00 00 08 00 00 00 6D   '.......m'
 (000.003172)  can0  464   [8]  21 20 78 31 20 78 20 20   '! x1 x  '
 (000.017042)  can0  461   [8]  20 33 34 30 30 98 F6 0C   ' 3400...'
 (000.003197)  can0  464   [8]  22 20 30 20 78 31 20 78   '" 0 x1 x'
 (000.017000)  can0  46C   [8]  10 00 00 18 C0 00 00 00   '........'
 (000.020249)  can0  46C   [8]  20 07 44 69 73 74 50 75   ' .DistPu'
 (000.020209)  can0  46C   [8]  21 62 00 00 00 08 32 35   '!b....25'
 (000.020208)  can0  46C   [8]  22 38 20 33 34 30 30 00   '"8 3400.'
 (000.043813)  can0  464   [8]  10 00 00 23 C0 00 00 00   '...#....'
 (000.020205)  can0  464   [8]  20 03 61 64 63 00 00 00   ' .adc...'
 (000.020222)  can0  464   [8]  21 17 37 2E 38 33 35 20   '!.7.835 '
 (000.020243)  can0  464   [8]  22 37 2E 38 30 31 32 30   '"7.80120'
 (000.020231)  can0  464   [8]  23 33 31 32 32 36 38 39   '#3122689'
 (000.020256)  can0  464   [8]  24 32 32 38 38 35 00 00   '$22885..'
 (000.016712)  can0  46C   [8]  10 00 00 15 C0 00 00 00   '........'
 (000.020221)  can0  46C   [8]  20 07 44 69 73 74 50 75   ' .DistPu'
 (000.020201)  can0  46C   [8]  21 62 00 00 00 05 32 35   '!b....25'
 (000.020214)  can0  46C   [8]  22 39 20 34 34 30 30 00   '"9 4400.'
 (000.145274)  can0  464   [8]  10 00 00 19 73 70 65 65   '....spee'
 (000.016412)  can0  46C   [8]  10 00 00 15 C0 00 00 00   '........'
 (000.003806)  can0  464   [8]  20 64 20 78 20 20 20 30   ' d x   0'
 (000.016393)  can0  46C   [8]  20 07 44 69 73 74 50 75   ' .DistPu'
 (000.003841)  can0  464   [8]  21 20 78 31 20 78 20 20   '! x1 x  '
 (000.016374)  can0  46C   [8]  21 62 00 00 00 05 32 36   '!b....26'
 (000.003867)  can0  464   [8]  22 20 30 20 78 31 20 78   '" 0 x1 x'
 (000.016347)  can0  46C   [8]  22 30 20 37 34 30 30 00   '"0 7400.'
 (000.161729)  can0  46C   [8]  10 00 00 17 C0 00 00 00   '........'
 (000.020303)  can0  46C   [8]  20 07 44 69 73 74 50 75   ' .DistPu'
 (000.020114)  can0  46C   [8]  21 62 00 00 00 07 32 36   '!b....26'
 (000.020186)  can0  46C   [8]  22 31 20 31 31 39 30 00   '"1 1190.'
 (000.161736)  can0  46C   [8]  10 00 00 15 C0 00 00 00   '........'
 (000.020178)  can0  46C   [8]  20 07 44 69 73 74 50 75   ' .DistPu'
 (000.020218)  can0  46C   [8]  21 62 00 00 00 05 32 36   '!b....26'
 (000.004388)  can0  464   [8]  10 00 00 19 73 70 65 65   '....spee'
 (000.015819)  can0  46C   [8]  22 32 20 34 31 39 30 00   '"2 4190.'
 (000.004446)  can0  464   [8]  20 64 20 78 20 20 20 30   ' d x   0'
 (000.020234)  can0  464   [8]  21 20 78 31 20 78 20 20   '! x1 x  '
 (000.020259)  can0  464   [8]  22 20 30 20 78 32 20 78   '" 0 x2 x'
 (000.116793)  can0  46C   [8]  10 00 00 15 C0 00 00 00   '........'
 (000.020178)  can0  46C   [8]  20 07 44 69 73 74 50 75   ' .DistPu'
 (000.020209)  can0  46C   [8]  21 62 00 00 00 05 32 36   '!b....26'
 (000.020206)  can0  46C   [8]  22 33 20 34 31 39 30 00   '"3 4190.'
 (000.181962)  can0  46C   [8]  10 00 00 15 C0 00 00 00   '........'
 (000.020202)  can0  46C   [8]  20 07 44 69 73 74 50 75   ' .DistPu'
 (000.020210)  can0  46C   [8]  21 62 00 00 00 05 32 36   '!b....26'
 (000.020272)  can0  46C   [8]  22 34 20 36 31 39 30 00   '"4 6190.'
 (000.025164)  can0  464   [8]  10 00 00 19 73 70 65 65   '....spee'
 (000.020251)  can0  464   [8]  20 64 20 78 20 20 20 30   ' d x   0'
 (000.020213)  can0  464   [8]  21 20 78 31 20 78 20 20   '! x1 x  '
 (000.020233)  can0  464   [8]  22 20 30 20 78 32 20 78   '" 0 x2 x'
 (000.075784)  can0  46C   [8]  10 00 00 18 C0 00 00 00   '........'
 (000.020206)  can0  46C   [8]  20 07 44 69 73 74 50 75   ' .DistPu'
 (000.020189)  can0  46C   [8]  21 62 00 00 00 08 32 36   '!b....26'
 (000.020242)  can0  46C   [8]  22 35 20 33 34 30 30 00   '"5 3400.'
 (000.181916)  can0  46C   [8]  10 00 00 15 C0 00 00 00   '........'
 (000.020177)  can0  46C   [8]  20 07 44 69 73 74 50 75   ' .DistPu'
 (000.020269)  can0  46C   [8]  21 62 00 00 00 05 32 36   '!b....26'
 (000.020194)  can0  46C   [8]  22 36 20 35 34 30 30 00   '"6 5400.'
 (000.066263)  can0  464   [8]  10 00 00 19 73 70 65 65   '....spee'
 (000.020226)  can0  464   [8]  20 64 20 78 20 20 20 30   ' d x   0'
 (000.020243)  can0  464   [8]  21 20 78 31 20 78 20 20   '! x1 x  '
 (000.020214)  can0  464   [8]  22 20 30 20 78 32 20 78   '" 0 x2 x'
 (000.014524)  can0  461   [8]  10 00 00 08 00 00 00 6D   '.......m'
 (000.020205)  can0  46C   [8]  20 C0 00 00 00 07 44 69   ' .....Di'
 (000.000506)  can0  461   [8]  10 00 00 08 33 34 30 30   '....3400'
 (000.019726)  can0  461   [8]  20 98 F6 0C 00 5C A6 12   ' ....\..'
 (000.202131)  can0  46C   [8]  10 00 00 18 C0 00 00 00   '........'
 (000.020172)  can0  46C   [8]  20 07 44 69 73 74 50 75   ' .DistPu'
 (000.020248)  can0  46C   [8]  21 62 00 00 00 08 32 36   '!b....26'
 (000.020212)  can0  46C   [8]  22 38 20 33 34 30 30 00   '"8 3400.'
 (000.127548)  can0  464   [8]  10 00 00 19 73 70 65 65   '....spee'
 (000.020258)  can0  464   [8]  20 64 20 78 20 20 20 30   ' d x   0'
 (000.013911)  can0  46C   [8]  10 00 00 18 C0 00 00 00   '........'
 (000.006284)  can0  464   [8]  21 20 78 31 20 78 20 20   '! x1 x  '
 (000.013901)  can0  46C   [8]  20 07 44 69 73 74 50 75   ' .DistPu'
 (000.006326)  can0  464   [8]  22 20 30 20 78 32 20 78   '" 0 x2 x'
 (000.013895)  can0  46C   [8]  21 62 00 00 00 08 32 36   '!b....26'
 (000.020199)  can0  46C   [8]  22 39 20 33 34 30 30 00   '"9 3400.'
 (000.161746)  can0  46C   [8]  10 00 00 16 C0 00 00 00   '........'
 (000.020177)  can0  46C   [8]  20 07 44 69 73 74 50 75   ' .DistPu'
 (000.020196)  can0  46C   [8]  21 62 00 00 00 06 32 37   '!b....27'
 (000.020210)  can0  46C   [8]  22 30 20 36 31 30 30 00   '"0 6100.'
 (000.161765)  can0  46C   [8]  10 00 00 16 C0 00 00 00   '........'
 (000.020167)  can0  46C   [8]  20 07 44 69 73 74 50 75   ' .DistPu'
 (000.006851)  can0  464   [8]  10 00 00 19 73 70 65 65   '....spee'
 (000.013357)  can0  46C   [8]  21 62 00 00 00 06 32 37   '!b....27'
 (000.006889)  can0  464   [8]  20 64 20 78 20 20 20 30   ' d x   0'
 (000.013311)  can0  46C   [8]  22 31 20 36 34 30 30 00   '"1 6400.'
 (000.006926)  can0  464   [8]  21 20 78 31 20 78 20 20   '! x1 x  '
 (000.020243)  can0  464   [8]  22 20 30 20 78 32 20 78   '" 0 x2 x'
 (000.134576)  can0  46C   [8]  10 00 00 16 C0 00 00 00   '........'
 (000.020201)  can0  46C   [8]  20 07 44 69 73 74 50 75   ' .DistPu'
 (000.020194)  can0  46C   [8]  21 62 00 00 00 06 32 37   '!b....27'
 (000.020201)  can0  46C   [8]  22 32 20 36 35 30 30 00   '"2 6500.'
 (000.161747)  can0  46C   [8]  10 00 00 16 C0 00 00 00   '........'
 (000.020147)  can0  46C   [8]  20 07 44 69 73 74 50 75   ' .DistPu'
 (000.020241)  can0  46C   [8]  21 62 00 00 00 06 32 37   '!b....27'
 (000.020198)  can0  46C   [8]  22 33 20 36 35 30 30 00   '"3 6500.'
 (000.027745)  can0  464   [8]  10 00 00 19 73 70 65 65   '....spee'
 (000.020353)  can0  464   [8]  20 64 20 78 20 20 20 30   ' d x   0'
 (000.020123)  can0  464   [8]  21 20 78 31 20 78 20 20   '! x1 x  '
 (000.020210)  can0  464   [8]  22 20 30 20 78 32 20 78   '" 0 x2 x'
 (000.073302)  can0  46C   [8]  10 00 00 16 C0 00 00 00   '........'
 (000.020171)  can0  46C   [8]  20 07 44 69 73 74 50 75   ' .DistPu'
 (000.020207)  can0  46C   [8]  21 62 00 00 00 06 32 37   '!b....27'
 (000.020279)  can0  46C   [8]  22 34 20 36 31 30 30 00   '"4 6100.'
 (000.181890)  can0  46C   [8]  10 00 00 16 C0 00 00 00   '........'
 (000.020162)  can0  46C   [8]  20 07 44 69 73 74 50 75   ' .DistPu'
 (000.020256)  can0  46C   [8]  21 62 00 00 00 06 32 37   '!b....27'
 (000.020176)  can0  46C   [8]  22 35 20 36 31 30 30 00   '"5 6100.'
 (000.068792)  can0  464   [8]  10 00 00 19 73 70 65 65   '....spee'
 (000.020229)  can0  464   [8]  20 64 20 78 20 20 20 30   ' d x   0'
 (000.020230)  can0  464   [8]  21 20 78 31 20 78 20 20   '! x1 x  '
 (000.020238)  can0  464   [8]  22 20 30 20 78 33 20 78   '" 0 x3 x'
 (000.032251)  can0  46C   [8]  10 00 00 16 C0 00 00 00   '........'
 (000.000484)  can0  461   [8]  06 00 00 00 6D 36 33 05   '....m63.'
 (000.019709)  can0  46C   [8]  20 07 44 69 73 74 50 75   ' .DistPu'
 (000.020204)  can0  46C   [8]  21 62 00 00 00 06 32 37   '!b....27'
 (000.020189)  can0  46C   [8]  22 36 20 36 33 30 30 00   '"6 6300.'
 (000.161743)  can0  46C   [8]  10 00 00 16 C0 00 00 00   '........'
 (000.020173)  can0  46C   [8]  20 07 44 69 73 74 50 75   ' .DistPu'
 (000.020207)  can0  46C   [8]  21 62 00 00 00 06 32 37   '!b....27'
 (000.020219)  can0  46C   [8]  22 37 20 37 33 30 30 00   '"7 7300.'
 (000.130056)  can0  464   [8]  10 00 00 19 73 70 65 65   '....spee'
 (000.020232)  can0  464   [8]  20 64 20 78 20 20 20 30   ' d x   0'
 (000.011426)  can0  46C   [8]  10 00 00 16 C0 00 00 00   '........'
 (000.008791)  can0  464   [8]  21 20 78 31 20 78 20 20   '! x1 x  '
 (000.011401)  can0  46C   [8]  20 07 44 69 73 74 50 75   ' .DistPu'
 (000.008834)  can0  464   [8]  22 20 30 20 78 33 20 78   '" 0 x3 x'
 (000.011401)  can0  46C   [8]  21 62 00 00 00 06 32 37   '!b....27'
 (000.020197)  can0  46C   [8]  22 38 20 38 35 30 30 00   '"8 8500.'
 (000.161733)  can0  46C   [8]  10 00 00 17 C0 00 00 00   '........'
 (000.020204)  can0  46C   [8]  20 07 44 69 73 74 50 75   ' .DistPu'
 (000.020224)  can0  46C   [8]  21 62 00 00 00 07 32 37   '!b....27'
 (000.020195)  can0  46C   [8]  22 39 20 31 30 31 30 00   '"9 1010.'
 (000.090114)  can0  464   [8]  10 00 00 23 C0 00 00 00   '...#....'
 (000.020220)  can0  464   [8]  20 03 61 64 63 00 00 00   ' .adc...'
 (000.020220)  can0  464   [8]  21 17 37 2E 38 32 35 20   '!.7.825 '
 (000.020262)  can0  464   [8]  22 37 2E 37 39 36 36 36   '"7.79666'
 (000.010924)  can0  46C   [8]  10 00 00 17 C0 00 00 00   '........'
 (000.009309)  can0  464   [8]  23 31 35 32 39 33 37 38   '#1529378'
 (000.010860)  can0  46C   [8]  20 07 44 69 73 74 50 75   ' .DistPu'
 (000.009373)  can0  464   [8]  24 32 37 34 38 35 00 00   '$27485..'
 (000.010836)  can0  46C   [8]  21 62 00 00 00 07 32 38   '!b....28'
 (000.020203)  can0  46C   [8]  22 30 20 31 31 37 30 00   '"0 1170.'
 (000.161738)  can0  46C   [8]  10 00 00 15 C0 00 00 00   '........'
 (000.020184)  can0  46C   [8]  20 07 44 69 73 74 50 75   ' .DistPu'
 (000.020209)  can0  46C   [8]  21 62 00 00 00 05 32 38   '!b....28'
 (000.020208)  can0  46C   [8]  22 31 20 35 31 37 30 00   '"1 5170.'
 (000.181974)  can0  46C   [8]  10 00 00 17 C0 00 00 00   '........'
 (000.020235)  can0  46C   [8]  20 07 44 69 73 74 50 75   ' .DistPu'
 (000.020153)  can0  46C   [8]  21 62 00 00 00 07 32 38   '!b....28'
 (000.020199)  can0  46C   [8]  22 32 20 33 30 34 30 00   '"2 3040.'
 (000.009989)  can0  464   [8]  10 00 00 19 73 70 65 65   '....spee'
 (000.020262)  can0  464   [8]  20 64 20 78 20 20 20 30   ' d x   0'
 (000.020256)  can0  464   [8]  21 20 78 31 20 78 20 20   '! x1 x  '
 (000.020221)  can0  464   [8]  22 20 30 20 78 33 20 78   '" 0 x3 x'
 (000.091005)  can0  46C   [8]  10 00 00 18 C0 00 00 00   '........'
 (000.020173)  can0  46C   [8]  20 07 44 69 73 74 50 75   ' .DistPu'
 (000.020239)  can0  46C   [8]  21 62 00 00 00 08 32 38   '!b....28'
 (000.020192)  can0  46C   [8]  22 33 20 33 34 30 30 00   '"3 3400.'
 (000.161722)  can0  46C   [8]  10 00 00 15 C0 00 00 00   '........'
 (000.020183)  can0  46C   [8]  20 07 44 69 73 74 50 75   ' .DistPu'
 (000.020219)  can0  46C   [8]  21 62 00 00 00 05 32 38   '!b....28'
 (000.020205)  can0  46C   [8]  22 34 20 33 34 30 30 00   '"4 3400.'
 (000.071287)  can0  464   [8]  10 00 00 19 73 70 65 65   '....spee'
 (000.020229)  can0  464   [8]  20 64 20 78 20 20 20 30   ' d x   0'
 (000.020253)  can0  464   [8]  21 20 78 31 20 78 20 20   '! x1 x  '
 (000.020229)  can0  464   [8]  22 20 30 20 78 33 20 78   '" 0 x3 x'
 (000.049946)  can0  46C   [8]  10 00 00 15 C0 00 00 00   '........'
 (000.020224)  can0  46C   [8]  20 07 44 69 73 74 50 75   ' .DistPu'
 (000.000466)  can0  461   [8]  05 00 00 00 6D 34 AB 05   '....m4..'
 (000.019740)  can0  46C   [8]  21 62 00 00 00 05 32 38   '!b....28'
 (000.020190)  can0  46C   [8]  22 35 20 34 34 30 30 00   '"5 4400.'
 (000.161721)  can0  46C   [8]  10 00 00 15 C0 00 00 00   '........'
 (000.020501)  can0  46C   [8]  20 07 44 69 73 74 50 75   ' .DistPu'
 (000.019904)  can0  46C   [8]  21 62 00 00 00 05 32 38   '!b....28'
 (000.020203)  can0  46C   [8]  22 36 20 33 34 30 30 00   '"6 3400.'
 (000.112324)  can0  464   [8]  10 00 00 19 73 70 65 65   '....spee'
 (000.020251)  can0  464   [8]  20 64 20 78 20 20 20 30   ' d x   0'
 (000.020208)  can0  464   [8]  21 20 78 31 20 78 20 20   '! x1 x  '
 (000.008925)  can0  46C   [8]  10 00 00 15 C0 00 00 00   '........'
 (000.011335)  can0  464   [8]  22 20 30 20 78 33 20 78   '" 0 x3 x'
 (000.008878)  can0  46C   [8]  20 07 44 69 73 74 50 75   ' .DistPu'
 (000.020205)  can0  46C   [8]  21 62 00 00 00 05 32 38   '!b....28'
 (000.020208)  can0  46C   [8]  22 37 20 33 34 30 30 00   '"7 3400.'
 (000.153101)  can0  464   [8]  10 00 00 24 C0 00 00 00   '...$....'
 (000.008627)  can0  46C   [8]  10 00 00 15 C0 00 00 00   '........'
 (000.011589)  can0  464   [8]  20 03 61 64 63 00 00 00   ' .adc...'
 (000.008582)  can0  46C   [8]  20 07 44 69 73 74 50 75   ' .DistPu'
 (000.011640)  can0  464   [8]  21 18 37 2E 37 39 34 38   '!.7.7948'
 (000.008581)  can0  46C   [8]  21 62 00 00 00 05 32 38   '!b....28'
 (000.011654)  can0  464   [8]  22 20 37 2E 37 39 36 34   '" 7.7964'
 (000.008565)  can0  46C   [8]  22 38 20 33 34 30 30 00   '"8 3400.'
 (000.011694)  can0  464   [8]  23 37 35 33 37 36 34 34   '#7537644'
 (000.020234)  can0  464   [8]  24 30 34 34 37 35 00 00   '$04475..'
 (000.129830)  can0  46C   [8]  10 00 00 15 C0 00 00 00   '........'
 (000.011841)  can0  464   [8]  10 00 00 19 73 70 65 65   '....spee'
 (000.008298)  can0  46C   [8]  20 07 44 69 73 74 50 75   ' .DistPu'
 (000.011944)  can0  464   [8]  20 64 20 78 20 20 20 30   ' d x   0'
 (000.008324)  can0  46C   [8]  21 62 00 00 00 05 32 38   '!b....28'
 (000.011936)  can0  464   [8]  21 20 78 31 20 78 20 20   '! x1 x  '
 (000.008248)  can0  46C   [8]  22 39 20 34 34 30 30 00   '"9 4400.'
 (000.012004)  can0  464   [8]  22 20 30 20 78 33 20 78   '" 0 x3 x'
 (000.149711)  can0  46C   [8]  10 00 00 15 C0 00 00 00   '........'
 (000.020167)  can0  46C   [8]  20 07 44 69 73 74 50 75   ' .DistPu'
 (000.020241)  can0  46C   [8]  21 62 00 00 00 05 32 39   '!b....29'
 (000.020402)  can0  46C   [8]  22 30 20 36 34 30 30 00   '"0 6400.'
 (000.181725)  can0  46C   [8]  10 00 00 15 C0 00 00 00   '........'
 (000.020186)  can0  46C   [8]  20 07 44 69 73 74 50 75   ' .DistPu'
 (000.020212)  can0  46C   [8]  21 62 00 00 00 05 32 39   '!b....29'
 (000.012529)  can0  464   [8]  10 00 00 19 73 70 65 65   '....spee'
 (000.007682)  can0  46C   [8]  22 31 20 33 34 30 30 00   '"1 3400.'
 (000.012559)  can0  464   [8]  20 64 20 78 20 20 20 30   ' d x   0'
 (000.020262)  can0  464   [8]  21 20 78 31 20 78 20 20   '! x1 x  '
 (000.020245)  can0  464   [8]  22 20 30 20 78 33 20 78   '" 0 x3 x'
 (000.108691)  can0  46C   [8]  10 00 00 15 C0 00 00 00   '........'
 (000.020168)  can0  46C   [8]  20 07 44 69 73 74 50 75   ' .DistPu'
 (000.020198)  can0  46C   [8]  21 62 00 00 00 05 32 39   '!b....29'
 (000.020208)  can0  46C   [8]  22 32 20 33 34 30 30 00   '"2 3400.'
 (000.161747)  can0  46C   [8]  10 00 00 15 C0 00 00 00   '........'
 (000.020179)  can0  46C   [8]  20 07 44 69 73 74 50 75   ' .DistPu'
 (000.020201)  can0  46C   [8]  21 62 00 00 00 05 32 39   '!b....29'
 (000.020203)  can0  46C   [8]  22 33 20 34 34 30 30 00   '"3 4400.'
 (000.053666)  can0  464   [8]  10 00 00 19 73 70 65 65   '....spee'
 (000.020196)  can0  464   [8]  20 64 20 78 20 20 20 30   ' d x   0'
 (000.020226)  can0  464   [8]  21 20 78 31 20 78 20 20   '! x1 x  '
 (000.020234)  can0  464   [8]  22 20 30 20 78 33 20 78   '" 0 x3 x'
 (000.047451)  can0  46C   [8]  10 00 00 15 C0 00 00 00   '........'
 (000.020180)  can0  46C   [8]  20 07 44 69 73 74 50 75   ' .DistPu'
 (000.020222)  can0  46C   [8]  21 62 00 00 00 05 32 39   '!b....29'
 (000.000482)  can0  461   [8]  05 00 00 00 6D 34 AB 05   '....m4..'
 (000.019709)  can0  46C   [8]  22 34 20 34 34 30 30 00   '"4 4400.'
 (000.161733)  can0  46C   [8]  10 00 00 15 C0 00 00 00   '........'
 (000.020207)  can0  46C   [8]  20 07 44 69 73 74 50 75   ' .DistPu'
 (000.020192)  can0  46C   [8]  21 62 00 00 00 05 32 39   '!b....29'
 (000.020196)  can0  46C   [8]  22 35 20 35 34 30 30 00   '"5 5400.'
 (000.114866)  can0  464   [8]  10 00 00 19 73 70 65 65   '....spee'
 (000.020237)  can0  464   [8]  20 64 20 78 20 20 20 30   ' d x   0'
 (000.020254)  can0  464   [8]  21 20 78 31 20 78 20 20   '! x1 x  '
 (000.006357)  can0  46C   [8]  10 00 00 15 C0 00 00 00   '........'
 (000.013868)  can0  464   [8]  22 20 30 20 78 33 20 78   '" 0 x3 x'
 (000.006335)  can0  46C   [8]  20 07 44 69 73 74 50 75   ' .DistPu'
 (000.020217)  can0  46C   [8]  21 62 00 00 00 05 32 39   '!b....29'
 (000.013927)  can0  464   [8]  10 00 00 24 C0 00 00 00   '...$....'
 (000.006311)  can0  46C   [8]  22 36 20 34 34 30 30 00   '"6 4400.'
 (000.014196)  can0  464   [8]  20 03 61 64 63 00 00 00   ' .adc...'
 (000.019956)  can0  464   [8]  21 18 37 2E 37 39 34 38   '!.7.7948'
 (000.020227)  can0  464   [8]  22 20 37 2E 37 39 36 33   '" 7.7963'
 (000.020240)  can0  464   [8]  23 30 37 38 33 38 37 39   '#0783879'
 (000.020240)  can0  464   [8]  24 36 34 30 33 35 00 00   '$64035..'
 (000.107269)  can0  46C   [8]  10 00 00 18 C0 00 00 00   '........'
 (000.020219)  can0  46C   [8]  20 07 44 69 73 74 50 75   ' .DistPu'
 (000.020192)  can0  46C   [8]  21 62 00 00 00 08 32 39   '!b....29'
 (000.020201)  can0  46C   [8]  22 37 20 33 34 30 30 00   '"7 3400.'
 (000.135721)  can0  464   [8]  10 00 00 19 73 70 65 65   '....spee'
 (000.020284)  can0  464   [8]  20 64 20 78 20 20 20 30   ' d x   0'
 (000.005706)  can0  46C   [8]  10 00 00 18 C0 00 00 00   '........'
 (000.014454)  can0  464   [8]  21 20 78 31 20 78 20 20   '! x1 x  '
 (000.005726)  can0  46C   [8]  20 07 44 69 73 74 50 75   ' .DistPu'
 (000.014498)  can0  464   [8]  22 20 30 20 78 33 20 78   '" 0 x3 x'
 (000.005713)  can0  46C   [8]  21 62 00 00 00 08 32 39   '!b....29'
 (000.020218)  can0  46C   [8]  22 38 20 33 34 30 30 00   '"8 3400.'
 (000.161747)  can0  46C   [8]  10 00 00 18 C0 00 00 00   '........'
 (000.020183)  can0  46C   [8]  20 07 44 69 73 74 50 75   ' .DistPu'
 (000.020207)  can0  46C   [8]  21 62 00 00 00 08 32 39   '!b....29'
 (000.020194)  can0  46C   [8]  22 39 20 33 34 30 30 00   '"9 3400.'
 (000.161754)  can0  46C   [8]  10 00 00 18 C0 00 00 00   '........'
 (000.020204)  can0  46C   [8]  20 07 44 69 73 74 50 75   ' .DistPu'
 (000.015009)  can0  464   [8]  10 00 00 19 73 70 65 65   '....spee'
 (000.005181)  can0  46C   [8]  21 62 00 00 00 08 33 30   '!b....30'
 (000.015038)  can0  464   [8]  20 64 20 78 20 20 20 30   ' d x   0'
 (000.005149)  can0  46C   [8]  22 30 20 33 34 30 30 00   '"0 3400.'
 (000.015088)  can0  464   [8]  21 20 78 31 20 78 20 20   '! x1 x  '
 (000.020237)  can0  464   [8]  22 20 30 20 78 33 20 78   '" 0 x3 x'
 (000.126483)  can0  46C   [8]  10 00 00 18 C0 00 00 00   '........'
 (000.020127)  can0  46C   [8]  20 07 44 69 73 74 50 75   ' .DistPu'
 (000.020210)  can0  46C   [8]  21 62 00 00 00 08 33 30   '!b....30'
 (000.020189)  can0  46C   [8]  22 31 20 33 34 30 30 00   '"1 3400.'
 (000.181959)  can0  46C   [8]  10 00 00 18 C0 00 00 00   '........'
 (000.020203)  can0  46C   [8]  20 07 44 69 73 74 50 75   ' .DistPu'
 (000.020214)  can0  46C   [8]  21 62 00 00 00 08 33 30   '!b....30'
 (000.020186)  can0  46C   [8]  22 32 20 33 34 30 30 00   '"2 3400.'
 (000.015660)  can0  464   [8]  10 00 00 19 73 70 65 65   '....spee'
 (000.020233)  can0  464   [8]  20 64 20 78 20 20 20 30   ' d x   0'
 (000.020309)  can0  464   [8]  21 20 78 31 20 78 20 20   '! x1 x  '
 (000.020174)  can0  464   [8]  22 20 30 20 78 33 20 78   '" 0 x3 x'
 (000.085493)  can0  46C   [8]  10 00 00 18 C0 00 00 00   '........'
 (000.020086)  can0  46C   [8]  20 07 44 69 73 74 50 75   ' .DistPu'
 (000.000535)  can0  461   [8]  21 00 00 00 6D 33 34 30   '!...m340'
 (000.019650)  can0  46C   [8]  22 62 00 00 00 08 33 30   '"b....30'
 (000.000502)  can0  461   [8]  10 00 00 08 30 98 F6 0C   '....0...'
 (000.019713)  can0  461   [8]  20 00 5C A6 12 00 00 00   ' .\.....'
 (000.161762)  can0  46C   [8]  10 00 00 18 C0 00 00 00   '........'
 (000.020145)  can0  46C   [8]  20 07 44 69 73 74 50 75   ' .DistPu'
 (000.020215)  can0  46C   [8]  21 62 00 00 00 08 33 30   '!b....30'
 (000.020208)  can0  46C   [8]  22 34 20 33 34 30 30 00   '"4 3400.'
 (000.036480)  can0  464   [8]  10 00 00 25 C0 00 00 00   '...%....'
 (000.020215)  can0  464   [8]  20 03 61 64 63 00 00 00   ' .adc...'
 (000.020209)  can0  464   [8]  21 19 37 2E 37 35 34 35   '!.7.7545'
 (000.020289)  can0  464   [8]  22 20 37 2E 37 39 32 31   '" 7.7921'
 (000.020213)  can0  464   [8]  23 32 37 30 35 34 39 31   '#2705491'
 (000.020223)  can0  464   [8]  24 36 37 36 32 35 00 00   '$67625..'
 (000.064531)  can0  46C   [8]  10 00 00 18 C0 00 00 00   '........'
 (000.020177)  can0  46C   [8]  20 07 44 69 73 74 50 75   ' .DistPu'
 (000.020288)  can0  46C   [8]  21 62 00 00 00 08 33 30   '!b....30'
 (000.020165)  can0  46C   [8]  22 35 20 33 34 30 30 00   '"5 3400.'
 (000.161731)  can0  46C   [8]  10 00 00 18 C0 00 00 00   '........'
 (000.020153)  can0  46C   [8]  20 07 44 69 73 74 50 75   ' .DistPu'
 (000.020251)  can0  46C   [8]  21 62 00 00 00 08 33 30   '!b....30'
 (000.020183)  can0  46C   [8]  22 36 20 33 34 30 30 00   '"6 3400.'
 (000.097737)  can0  464   [8]  10 00 00 19 73 70 65 65   '....spee'
 (000.020233)  can0  464   [8]  20 64 20 78 20 20 20 30   ' d x   0'
 (000.020244)  can0  464   [8]  21 20 78 31 20 78 20 20   '! x1 x  '
 (000.020242)  can0  464   [8]  22 20 30 20 78 33 20 78   '" 0 x3 x'
 (000.003270)  can0  46C   [8]  10 00 00 18 C0 00 00 00   '........'
 (000.020201)  can0  46C   [8]  20 07 44 69 73 74 50 75   ' .DistPu'
 (000.020234)  can0  46C   [8]  21 62 00 00 00 08 33 30   '!b....30'
 (000.020160)  can0  46C   [8]  22 37 20 33 34 30 30 00   '"7 3400.'
 (000.161745)  can0  46C   [8]  10 00 00 18 C0 00 00 00   '........'
 (000.020170)  can0  46C   [8]  20 07 44 69 73 74 50 75   ' .DistPu'
 (000.020209)  can0  46C   [8]  21 62 00 00 00 08 33 30   '!b....30'
 (000.020209)  can0  46C   [8]  22 38 20 33 34 30 30 00   '"8 3400.'
 (000.159016)  can0  464   [8]  10 00 00 19 73 70 65 65   '....spee'
 (000.002704)  can0  46C   [8]  10 00 00 18 C0 00 00 00   '........'
 (000.017510)  can0  464   [8]  20 64 20 78 20 20 20 30   ' d x   0'
 (000.002675)  can0  46C   [8]  20 07 44 69 73 74 50 75   ' .DistPu'
 (000.017566)  can0  464   [8]  21 20 78 31 20 78 20 20   '! x1 x  '
 (000.002657)  can0  46C   [8]  21 62 00 00 00 08 33 30   '!b....30'
 (000.017577)  can0  464   [8]  22 20 30 20 78 33 20 78   '" 0 x3 x'
 (000.002637)  can0  46C   [8]  22 39 20 33 34 30 30 00   '"9 3400.'
 (000.161749)  can0  46C   [8]  10 00 00 18 C0 00 00 00   '........'
 (000.020162)  can0  46C   [8]  20 07 44 69 73 74 50 75   ' .DistPu'
 (000.020246)  can0  46C   [8]  21 62 00 00 00 08 33 31   '!b....31'
 (000.020223)  can0  46C   [8]  22 30 20 33 34 30 30 00   '"0 3400.'
 (000.161695)  can0  46C   [8]  10 00 00 18 C0 00 00 00   '........'
 (000.020227)  can0  46C   [8]  20 07 44 69 73 74 50 75   ' .DistPu'
 (000.020337)  can0  46C   [8]  21 62 00 00 00 08 33 31   '!b....31'
 (000.017964)  can0  464   [8]  10 00 00 19 73 70 65 65   '....spee'
 (000.002100)  can0  46C   [8]  22 31 20 33 34 30 30 00   '"1 3400.'
 (000.018147)  can0  464   [8]  20 64 20 78 20 20 20 30   ' d x   0'
 (000.020218)  can0  464   [8]  21 20 78 31 20 78 20 20   '! x1 x  '
 (000.020235)  can0  464   [8]  22 20 30 20 78 33 20 78   '" 0 x3 x'
 (000.143552)  can0  46C   [8]  10 00 00 18 C0 00 00 00   '........'
 (000.020167)  can0  46C   [8]  20 07 44 69 73 74 50 75   ' .DistPu'
 (000.000523)  can0  461   [8]  21 00 00 00 6D 33 34 30   '!...m340'
 (000.019725)  can0  46C   [8]  22 62 00 00 00 08 33 31   '"b....31'
 (000.000499)  can0  461   [8]  10 00 00 08 30 98 F6 0C   '....0...'
 (000.019709)  can0  461   [8]  20 00 0C A9 14 00 00 00   ' .......'
 (000.038703)  can0  464   [8]  10 00 00 25 C0 00 00 00   '...%....'
 (000.020275)  can0  464   [8]  20 03 61 64 63 00 00 00   ' .adc...'
 (000.020252)  can0  464   [8]  21 19 37 2E 37 30 34 31   '!.7.7041'
 (000.020185)  can0  464   [8]  22 20 37 2E 37 38 33 33   '" 7.7833'
 (000.020219)  can0  464   [8]  23 32 34 33 34 39 34 32   '#2434942'
 (000.020242)  can0  464   [8]  24 35 30 38 36 36 00 00   '$50866..'
 (000.021845)  can0  46C   [8]  10 00 00 18 C0 00 00 00   '........'
 (000.020208)  can0  46C   [8]  20 07 44 69 73 74 50 75   ' .DistPu'
 (000.020174)  can0  46C   [8]  21 62 00 00 00 08 33 31   '!b....31'
 (000.020198)  can0  46C   [8]  22 33 20 33 34 30 30 00   '"3 3400.'
 (000.018847)  can0  464   [8]  10 00 00 19 73 70 65 65   '....spee'
 (000.020181)  can0  464   [8]  20 64 20 78 20 20 20 30   ' d x   0'
 (000.020223)  can0  464   [8]  21 20 78 31 20 78 20 20   '! x1 x  '
 (000.020230)  can0  464   [8]  22 20 30 20 78 33 20 78   '" 0 x3 x'
 (000.082266)  can0  46C   [8]  10 00 00 18 C0 00 00 00   '........'
 (000.020177)  can0  46C   [8]  20 07 44 69 73 74 50 75   ' .DistPu'
 (000.020240)  can0  46C   [8]  21 62 00 00 00 08 33 31   '!b....31'
 (000.020190)  can0  46C   [8]  22 34 20 33 34 30 30 00   '"4 3400.'
 (000.161745)  can0  46C   [8]  10 00 00 18 C0 00 00 00   '........'
 (000.020174)  can0  46C   [8]  20 07 44 69 73 74 50 75   ' .DistPu'
 (000.020205)  can0  46C   [8]  21 62 00 00 00 08 33 31   '!b....31'
 (000.020262)  can0  46C   [8]  22 35 20 33 34 30 30 00   '"5 3400.'
 (000.079995)  can0  464   [8]  10 00 00 19 73 70 65 65   '....spee'
 (000.020238)  can0  464   [8]  20 64 20 78 20 20 20 30   ' d x   0'
 (000.020316)  can0  464   [8]  21 20 78 31 20 78 20 20   '! x1 x  '
 (000.020155)  can0  464   [8]  22 20 30 20 78 33 20 78   '" 0 x3 x'
 (000.041172)  can0  46C   [8]  10 00 00 18 C0 00 00 00   '........'
 (000.020210)  can0  46C   [8]  20 07 44 69 73 74 50 75   ' .DistPu'
 (000.020251)  can0  46C   [8]  21 62 00 00 00 08 33 31   '!b....31'
 (000.020161)  can0  46C   [8]  22 36 20 33 34 30 30 00   '"6 3400.'
 (000.161730)  can0  46C   [8]  10 00 00 18 C0 00 00 00   '........'
 (000.020169)  can0  46C   [8]  20 07 44 69 73 74 50 75   ' .DistPu'
 (000.020266)  can0  46C   [8]  21 62 00 00 00 08 33 31   '!b....31'
 (000.020183)  can0  46C   [8]  22 37 20 33 34 30 30 00   '"7 3400.'
 (000.121075)  can0  464   [8]  10 00 00 19 73 70 65 65   '....spee'
 (000.020232)  can0  464   [8]  20 64 20 78 20 20 20 30   ' d x   0'
 (000.020230)  can0  464   [8]  21 20 78 31 20 78 20 20   '! x1 x  '
 (000.000246)  can0  46C   [8]  10 00 00 18 C0 00 00 00   '........'
 (000.020025)  can0  464   [8]  22 20 30 20 78 33 20 78   '" 0 x3 x'
 (000.000209)  can0  46C   [8]  20 07 44 69 73 74 50 75   ' .DistPu'
 (000.020103)  can0  46C   [8]  21 62 00 00 00 08 33 31   '!b....31'
 (000.020245)  can0  46C   [8]  22 38 20 33 34 30 30 00   '"8 3400.'
 (000.161717)  can0  46C   [8]  10 00 00 18 C0 00 00 00   '........'
 (000.020230)  can0  46C   [8]  20 07 44 69 73 74 50 75   ' .DistPu'
 (000.020161)  can0  46C   [8]  21 62 00 00 00 08 33 31   '!b....31'
 (000.020184)  can0  46C   [8]  22 39 20 33 34 30 30 00   '"9 3400.'
 (000.182389)  can0  464   [8]  10 00 00 19 73 70 65 65   '....spee'
 (000.019764)  can0  46C   [8]  10 00 00 18 C0 00 00 00   '........'
 (000.000435)  can0  464   [8]  20 64 20 78 20 20 20 30   ' d x   0'
 (000.019771)  can0  46C   [8]  20 07 44 69 73 74 50 75   ' .DistPu'
 (000.000497)  can0  464   [8]  21 20 78 31 20 78 20 20   '! x1 x  '
 (000.019723)  can0  46C   [8]  21 62 00 00 00 08 33 32   '!b....32'
 (000.000467)  can0  464   [8]  22 20 30 20 78 33 20 78   '" 0 x3 x'
 (000.019788)  can0  46C   [8]  22 30 20 33 34 30 30 00   '"0 3400.'
 (000.061198)  can0  464   [8]  10 00 00 24 C0 00 00 00   '...$....'
 (000.020231)  can0  464   [8]  20 03 61 64 63 00 00 00   ' .adc...'
 (000.020275)  can0  464   [8]  21 18 37 2E 37 38 34 37   '!.7.7847'
 (000.020244)  can0  464   [8]  22 20 37 2E 37 38 33 34   '" 7.7834'
 (000.020159)  can0  464   [8]  23 36 31 39 31 34 34 38   '#6191448'
 (000.020240)  can0  464   [8]  24 32 35 37 38 36 00 00   '$25786..'
 (000.019540)  can0  46C   [8]  10 00 00 18 C0 00 00 00   '........'
 (000.000482)  can0  461   [8]  20 00 00 00 6D 33 34 30   ' ...m340'
 (000.019687)  can0  46C   [8]  21 07 44 69 73 74 50 75   '!.DistPu'
 (000.000516)  can0  461   [8]  22 30 98 F6 0C 00 0C A9   '"0......'
 (000.019726)  can0  46C   [8]  10 00 00 18 62 00 00 00   '....b...'
 (000.020177)  can0  46C   [8]  20 08 33 32 31 20 33 34   ' .321 34'
 (000.020225)  can0  46C   [8]  21 30 30 00 00 00 00 00   '!00.....'
 (000.020223)  can0  46C   [8]  22 00 00 00 00 00 00 00   '".......'
 (000.101085)  can0  46C   [8]  10 00 00 18 C0 00 00 00   '........'
 (000.020252)  can0  46C   [8]  20 07 44 69 73 74 50 75   ' .DistPu'
 (000.020149)  can0  46C   [8]  21 62 00 00 00 08 33 32   '!b....32'
 (000.001034)  can0  464   [8]  10 00 00 19 73 70 65 65   '....spee'
 (000.019158)  can0  46C   [8]  22 32 20 33 34 30 30 00   '"2 3400.'
 (000.001087)  can0  464   [8]  20 64 20 78 20 20 20 30   ' d x   0'
 (000.020318)  can0  464   [8]  21 20 78 31 20 78 20 20   '! x1 x  '
 (000.020182)  can0  464   [8]  22 20 30 20 78 33 20 78   '" 0 x3 x'
 (000.140391)  can0  46C   [8]  10 00 00 18 C0 00 00 00   '........'
 (000.020142)  can0  46C   [8]  20 07 44 69 73 74 50 75   ' .DistPu'
 (000.020262)  can0  46C   [8]  21 62 00 00 00 08 33 32   '!b....32'
 (000.020201)  can0  46C   [8]  22 33 20 33 34 30 30 00   '"3 3400.'
 (000.161718)  can0  46C   [8]  10 00 00 18 C0 00 00 00   '........'
 (000.020169)  can0  46C   [8]  20 07 44 69 73 74 50 75   ' .DistPu'
 (000.020217)  can0  46C   [8]  21 62 00 00 00 08 33 32   '!b....32'
 (000.020303)  can0  46C   [8]  22 34 20 33 34 30 30 00   '"4 3400.'
 (000.021840)  can0  464   [8]  10 00 00 19 73 70 65 65   '....spee'
 (000.020236)  can0  464   [8]  20 64 20 78 20 20 20 30   ' d x   0'
 (000.020261)  can0  464   [8]  21 20 78 31 20 78 20 20   '! x1 x  '
 (000.020276)  can0  464   [8]  22 20 30 20 78 33 20 78   '" 0 x3 x'
 (000.079037)  can0  46C   [8]  10 00 00 18 C0 00 00 00   '........'
 (000.020238)  can0  46C   [8]  20 07 44 69 73 74 50 75   ' .DistPu'
 (000.020169)  can0  46C   [8]  21 62 00 00 00 08 33 32   '!b....32'
 (000.020197)  can0  46C   [8]  22 35 20 33 34 30 30 00   '"5 3400.'
 (000.161744)  can0  46C   [8]  10 00 00 18 C0 00 00 00   '........'
 (000.020189)  can0  46C   [8]  20 07 44 69 73 74 50 75   ' .DistPu'
 (000.020196)  can0  46C   [8]  21 62 00 00 00 08 33 32   '!b....32'
 (000.020199)  can0  46C   [8]  22 36 20 33 34 30 30 00   '"6 3400.'
 (000.083251)  can0  464   [8]  10 00 00 19 73 70 65 65   '....spee'
 (000.020243)  can0  464   [8]  20 64 20 78 20 20 20 30   ' d x   0'
 (000.020199)  can0  464   [8]  21 20 78 31 20 78 20 20   '! x1 x  '
 (000.020210)  can0  464   [8]  22 20 30 20 78 33 20 78   '" 0 x3 x'
 (000.038031)  can0  46C   [8]  10 00 00 18 C0 00 00 00   '........'
 (000.020245)  can0  46C   [8]  20 07 44 69 73 74 50 75   ' .DistPu'
 (000.020171)  can0  46C   [8]  21 62 00 00 00 08 33 32   '!b....32'
 (000.020201)  can0  46C   [8]  22 37 20 33 34 30 30 00   '"7 3400.'
 (000.161741)  can0  46C   [8]  10 00 00 18 C0 00 00 00   '........'
 (000.020202)  can0  46C   [8]  20 07 44 69 73 74 50 75   ' .DistPu'
 (000.020232)  can0  46C   [8]  21 62 00 00 00 08 33 32   '!b....32'
 (000.020177)  can0  46C   [8]  22 38 20 33 34 30 30 00   '"8 3400.'
 (000.104009)  can0  464   [8]  10 00 00 22 C0 00 00 00   '..."....'
 (000.020222)  can0  464   [8]  20 03 61 64 63 00 00 00   ' .adc...'
 (000.020218)  can0  464   [8]  21 16 37 2E 38 32 35 20   '!.7.825 '
 (000.020230)  can0  464   [8]  22 37 2E 37 38 37 36 31   '"7.78761'
 (000.017272)  can0  46C   [8]  10 00 00 18 C0 00 00 00   '........'
 (000.003021)  can0  464   [8]  23 35 37 32 33 30 33 34   '#5723034'
 (000.017158)  can0  46C   [8]  20 07 44 69 73 74 50 75   ' .DistPu'
 (000.003059)  can0  464   [8]  24 33 32 37 38 36 00 00   '$32786..'
 (000.017143)  can0  46C   [8]  21 62 00 00 00 08 33 32   '!b....32'
 (000.020197)  can0  46C   [8]  22 39 20 33 34 30 30 00   '"9 3400.'
 (000.181966)  can0  46C   [8]  10 00 00 18 C0 00 00 00   '........'
 (000.000462)  can0  461   [8]  20 00 00 00 6D 33 34 30   ' ...m340'
 (000.019698)  can0  46C   [8]  21 07 44 69 73 74 50 75   '!.DistPu'
 (000.000499)  can0  461   [8]  22 30 98 F6 0C 00 0C A9   '"0......'
 (000.019710)  can0  46C   [8]  10 00 00 18 62 00 00 00   '....b...'
 (000.020227)  can0  46C   [8]  20 08 33 33 30 20 33 34   ' .330 34'
 (000.020207)  can0  46C   [8]  21 30 30 00 00 00 00 00   '!00.....'
 (000.020418)  can0  46C   [8]  22 00 00 00 00 00 00 00   '".......'
 (000.100880)  can0  46C   [8]  10 00 00 18 C0 00 00 00   '........'
 (000.003564)  can0  464   [8]  10 00 00 19 73 70 65 65   '....spee'
 (000.016623)  can0  46C   [8]  20 07 44 69 73 74 50 75   ' .DistPu'
 (000.003613)  can0  464   [8]  20 64 20 78 20 20 20 30   ' d x   0'
 (000.016592)  can0  46C   [8]  21 62 00 00 00 08 33 33   '!b....33'
 (000.003650)  can0  464   [8]  21 20 78 31 20 78 20 20   '! x1 x  '
 (000.016598)  can0  46C   [8]  22 31 20 33 34 30 30 00   '"1 3400.'
 (000.003632)  can0  464   [8]  22 20 30 20 78 33 20 78   '" 0 x3 x'
 (000.158121)  can0  46C   [8]  10 00 00 18 C0 00 00 00   '........'
 (000.020215)  can0  46C   [8]  20 07 44 69 73 74 50 75   ' .DistPu'
 (000.020142)  can0  46C   [8]  21 62 00 00 00 08 33 33   '!b....33'
 (000.020202)  can0  46C   [8]  22 32 20 33 34 30 30 00   '"2 3400.'
 (000.161733)  can0  46C   [8]  10 00 00 18 C0 00 00 00   '........'
 (000.020188)  can0  46C   [8]  20 07 44 69 73 74 50 75   ' .DistPu'
 (000.020206)  can0  46C   [8]  21 62 00 00 00 08 33 33   '!b....33'
 (000.020243)  can0  46C   [8]  22 33 20 33 34 30 30 00   '"3 3400.'
 (000.004195)  can0  464   [8]  10 00 00 19 73 70 65 65   '....spee'
 (000.020290)  can0  464   [8]  20 64 20 78 20 20 20 30   ' d x   0'
 (000.020162)  can0  464   [8]  21 20 78 31 20 78 20 20   '! x1 x  '
 (000.020223)  can0  464   [8]  22 20 30 20 78 33 20 78   '" 0 x3 x'
 (000.137267)  can0  46C   [8]  10 00 00 18 C0 00 00 00   '........'
 (000.020177)  can0  46C   [8]  20 07 44 69 73 74 50 75   ' .DistPu'
 (000.020212)  can0  46C   [8]  21 62 00 00 00 08 33 33   '!b....33'
 (000.020202)  can0  46C   [8]  22 34 20 33 34 30 30 00   '"4 3400.'
 (000.161739)  can0  46C   [8]  10 00 00 18 C0 00 00 00   '........'
 (000.020176)  can0  46C   [8]  20 07 44 69 73 74 50 75   ' .DistPu'
 (000.020247)  can0  46C   [8]  21 62 00 00 00 08 33 33   '!b....33'
 (000.020204)  can0  46C   [8]  22 35 20 33 34 30 30 00   '"5 3400.'
 (000.025015)  can0  464   [8]  10 00 00 19 73 70 65 65   '....spee'
 (000.020221)  can0  464   [8]  20 64 20 78 20 20 20 30   ' d x   0'
 (000.020240)  can0  464   [8]  21 20 78 31 20 78 20 20   '! x1 x  '
 (000.020231)  can0  464   [8]  22 20 30 20 78 33 20 78   '" 0 x3 x'
 (000.076005)  can0  46C   [8]  10 00 00 18 C0 00 00 00   '........'
 (000.020199)  can0  46C   [8]  20 07 44 69 73 74 50 75   ' .DistPu'
 (000.020354)  can0  46C   [8]  21 62 00 00 00 08 33 33   '!b....33'
 (000.020089)  can0  46C   [8]  22 36 20 33 34 30 30 00   '"6 3400.'
 (000.126482)  can0  464   [8]  10 00 00 24 C0 00 00 00   '...$....'
 (000.020215)  can0  464   [8]  20 03 61 64 63 00 00 00   ' .adc...'
 (000.014977)  can0  46C   [8]  10 00 00 18 C0 00 00 00   '........'
 (000.005265)  can0  464   [8]  21 18 37 2E 38 31 34 39   '!.7.8149'
 (000.015077)  can0  46C   [8]  20 07 44 69 73 74 50 75   ' .DistPu'
 (000.005136)  can0  464   [8]  22 20 37 2E 37 39 30 33   '" 7.7903'
 (000.014930)  can0  46C   [8]  21 62 00 00 00 08 33 33   '!b....33'
 (000.005303)  can0  464   [8]  23 34 34 31 35 30 37 33   '#4415073'
 (000.014905)  can0  46C   [8]  22 37 20 33 34 30 30 00   '"7 3400.'
 (000.005343)  can0  464   [8]  24 30 38 38 38 36 00 00   '$08886..'
 (000.080995)  can0  464   [8]  10 00 00 19 73 70 65 65   '....spee'
 (000.020235)  can0  464   [8]  20 64 20 78 20 20 20 30   ' d x   0'
 (000.020224)  can0  464   [8]  21 20 78 31 20 78 20 20   '! x1 x  '
 (000.020221)  can0  464   [8]  22 20 30 20 78 33 20 78   '" 0 x3 x'
 (000.014740)  can0  46C   [8]  10 00 00 18 C0 00 00 00   '........'
 (000.020206)  can0  46C   [8]  20 07 44 69 73 74 50 75   ' .DistPu'
 (000.020180)  can0  46C   [8]  21 62 00 00 00 08 33 33   '!b....33'
 (000.020202)  can0  46C   [8]  22 38 20 33 34 30 30 00   '"8 3400.'
 (000.161771)  can0  46C   [8]  10 00 00 18 C0 00 00 00   '........'
 (000.020163)  can0  46C   [8]  20 07 44 69 73 74 50 75   ' .DistPu'
 (000.000509)  can0  461   [8]  21 00 00 00 6D 33 34 30   '!...m340'
 (000.019692)  can0  46C   [8]  22 62 00 00 00 08 33 33   '"b....33'
 (000.000502)  can0  461   [8]  10 00 00 08 30 98 F6 0C   '....0...'
 (000.019731)  can0  461   [8]  20 00 0C A9 14 00 00 00   ' .......'
 (000.147546)  can0  464   [8]  10 00 00 19 73 70 65 65   '....spee'
 (000.014135)  can0  46C   [8]  10 00 00 18 C0 00 00 00   '........'
 (000.006110)  can0  464   [8]  20 64 20 78 20 20 20 30   ' d x   0'
 (000.014137)  can0  46C   [8]  20 07 44 69 73 74 50 75   ' .DistPu'
 (000.006065)  can0  464   [8]  21 20 78 31 20 78 20 20   '! x1 x  '
 (000.014107)  can0  46C   [8]  21 62 00 00 00 08 33 34   '!b....34'
 (000.006134)  can0  464   [8]  22 20 30 20 78 33 20 78   '" 0 x3 x'
 (000.014076)  can0  46C   [8]  22 30 20 33 34 30 30 00   '"0 3400.'
 (000.181950)  can0  46C   [8]  10 00 00 18 C0 00 00 00   '........'
 (000.020210)  can0  46C   [8]  20 07 44 69 73 74 50 75   ' .DistPu'
 (000.020208)  can0  46C   [8]  21 62 00 00 00 08 33 34   '!b....34'
 (000.020228)  can0  46C   [8]  22 31 20 33 34 30 30 00   '"1 3400.'
 (000.181919)  can0  46C   [8]  10 00 00 18 C0 00 00 00   '........'
 (000.006626)  can0  464   [8]  10 00 00 19 73 70 65 65   '....spee'
 (000.013531)  can0  46C   [8]  20 07 44 69 73 74 50 75   ' .DistPu'
 (000.006700)  can0  464   [8]  20 64 20 78 20 20 20 30   ' d x   0'
 (000.013519)  can0  46C   [8]  21 62 00 00 00 08 33 34   '!b....34'
 (000.006718)  can0  464   [8]  21 20 78 31 20 78 20 20   '! x1 x  '
 (000.013484)  can0  46C   [8]  22 32 20 33 34 30 30 00   '"2 3400.'
 (000.006747)  can0  464   [8]  22 20 30 20 78 33 20 78   '" 0 x3 x'
 (000.155010)  can0  46C   [8]  10 00 00 18 C0 00 00 00   '........'
 (000.020200)  can0  46C   [8]  20 07 44 69 73 74 50 75   ' .DistPu'
 (000.020195)  can0  46C   [8]  21 62 00 00 00 08 33 34   '!b....34'
 (000.020188)  can0  46C   [8]  22 33 20 33 34 30 30 00   '"3 3400.'
 (000.161806)  can0  46C   [8]  10 00 00 18 C0 00 00 00   '........'
 (000.020110)  can0  46C   [8]  20 07 44 69 73 74 50 75   ' .DistPu'
 (000.020218)  can0  46C   [8]  21 62 00 00 00 08 33 34   '!b....34'
 (000.020236)  can0  46C   [8]  22 34 20 33 34 30 30 00   '"4 3400.'
 (000.007271)  can0  464   [8]  10 00 00 19 73 70 65 65   '....spee'
 (000.020240)  can0  464   [8]  20 64 20 78 20 20 20 30   ' d x   0'
 (000.020252)  can0  464   [8]  21 20 78 31 20 78 20 20   '! x1 x  '
 (000.020207)  can0  464   [8]  22 20 30 20 78 33 20 78   '" 0 x3 x'
 (000.093730)  can0  46C   [8]  10 00 00 18 C0 00 00 00   '........'
 (000.007474)  can0  464   [8]  10 00 00 22 C0 00 00 00   '..."....'
 (000.012721)  can0  46C   [8]  20 07 44 69 73 74 50 75   ' .DistPu'
 (000.007516)  can0  464   [8]  20 03 61 64 63 00 00 00   ' .adc...'
 (000.012703)  can0  46C   [8]  21 62 00 00 00 08 33 34   '!b....34'
 (000.007503)  can0  464   [8]  21 16 37 2E 37 37 34 36   '!.7.7746'
 (000.012715)  can0  46C   [8]  22 35 20 33 34 30 30 00   '"5 3400.'
 (000.007545)  can0  464   [8]  22 20 37 2E 37 38 38 37   '" 7.7887'
 (000.020218)  can0  464   [8]  23 36 39 37 33 35 36 35   '#6973565'
 (000.020246)  can0  464   [8]  24 37 38 38 38 36 00 00   '$78886..'
 (000.113692)  can0  46C   [8]  10 00 00 18 C0 00 00 00   '........'
 (000.020179)  can0  46C   [8]  20 07 44 69 73 74 50 75   ' .DistPu'
 (000.020254)  can0  46C   [8]  21 62 00 00 00 08 33 34   '!b....34'
 (000.020179)  can0  46C   [8]  22 36 20 33 34 30 30 00   '"6 3400.'
 (000.068585)  can0  464   [8]  10 00 00 19 73 70 65 65   '....spee'
 (000.020223)  can0  464   [8]  20 64 20 78 20 20 20 30   ' d x   0'
 (000.020269)  can0  464   [8]  21 20 78 31 20 78 20 20   '! x1 x  '
 (000.020208)  can0  464   [8]  22 20 30 20 78 33 20 78   '" 0 x3 x'
 (000.052648)  can0  46C   [8]  10 00 00 18 C0 00 00 00   '........'
 (000.020182)  can0  46C   [8]  20 07 44 69 73 74 50 75   ' .DistPu'
 (000.020222)  can0  46C   [8]  21 62 00 00 00 08 33 34   '!b....34'
 (000.020209)  can0  46C   [8]  22 37 20 33 34 30 30 00   '"7 3400.'
 (000.161756)  can0  46C   [8]  10 00 00 18 C0 00 00 00   '........'
 (000.020172)  can0  46C   [8]  20 07 44 69 73 74 50 75   ' .DistPu'
 (000.000511)  can0  461   [8]  21 00 00 00 6D 33 34 30   '!...m340'
 (000.019699)  can0  46C   [8]  22 62 00 00 00 08 33 34   '"b....34'
 (000.000512)  can0  461   [8]  10 00 00 08 30 98 F6 0C   '....0...'
 (000.019713)  can0  461   [8]  20 00 0C A9 14 00 00 00   ' .......'
 (000.109628)  can0  464   [8]  10 00 00 19 73 70 65 65   '....spee'
 (000.020213)  can0  464   [8]  20 64 20 78 20 20 20 30   ' d x   0'
 (000.020233)  can0  464   [8]  21 20 78 31 20 78 20 20   '! x1 x  '
 (000.011627)  can0  46C   [8]  10 00 00 18 C0 00 00 00   '........'
 (000.008610)  can0  464   [8]  22 20 30 20 78 33 20 78   '" 0 x3 x'
 (000.011619)  can0  46C   [8]  20 07 44 69 73 74 50 75   ' .DistPu'
 (000.020185)  can0  46C   [8]  21 62 00 00 00 08 33 34   '!b....34'
 (000.020229)  can0  46C   [8]  22 39 20 33 34 30 30 00   '"9 3400.'
 (000.181943)  can0  46C   [8]  10 00 00 18 C0 00 00 00   '........'
 (000.020206)  can0  46C   [8]  20 07 44 69 73 74 50 75   ' .DistPu'
 (000.020187)  can0  46C   [8]  21 62 00 00 00 08 33 35   '!b....35'
 (000.020195)  can0  46C   [8]  22 30 20 33 34 30 30 00   '"0 3400.'
 (000.150693)  can0  464   [8]  10 00 00 19 73 70 65 65   '....spee'
 (000.011034)  can0  46C   [8]  10 00 00 18 C0 00 00 00   '........'
 (000.009167)  can0  464   [8]  20 64 20 78 20 20 20 30   ' d x   0'
 (000.011009)  can0  46C   [8]  20 07 44 69 73 74 50 75   ' .DistPu'
 (000.009228)  can0  464   [8]  21 20 78 31 20 78 20 20   '! x1 x  '
 (000.010994)  can0  46C   [8]  21 62 00 00 00 08 33 35   '!b....35'
 (000.009237)  can0  464   [8]  22 20 30 20 78 33 20 78   '" 0 x3 x'
 (000.011005)  can0  46C   [8]  22 31 20 33 34 30 30 00   '"1 3400.'
 (000.181944)  can0  46C   [8]  10 00 00 18 C0 00 00 00   '........'
 (000.020169)  can0  46C   [8]  20 07 44 69 73 74 50 75   ' .DistPu'
 (000.020250)  can0  46C   [8]  21 62 00 00 00 08 33 35   '!b....35'
 (000.020177)  can0  46C   [8]  22 32 20 33 34 30 30 00   '"2 3400.'
 (000.161719)  can0  46C   [8]  10 00 00 18 C0 00 00 00   '........'
 (000.020206)  can0  46C   [8]  20 07 44 69 73 74 50 75   ' .DistPu'
 (000.009764)  can0  464   [8]  10 00 00 19 73 70 65 65   '....spee'
 (000.010430)  can0  46C   [8]  21 62 00 00 00 08 33 35   '!b....35'
 (000.009867)  can0  464   [8]  20 64 20 78 20 20 20 30   ' d x   0'
 (000.010352)  can0  46C   [8]  22 33 20 33 34 30 30 00   '"3 3400.'
 (000.009826)  can0  464   [8]  21 20 78 31 20 78 20 20   '! x1 x  '
 (000.020238)  can0  464   [8]  22 20 30 20 78 33 20 78   '" 0 x3 x'
 (000.131672)  can0  46C   [8]  10 00 00 18 C0 00 00 00   '........'
 (000.020174)  can0  46C   [8]  20 07 44 69 73 74 50 75   ' .DistPu'
 (000.020195)  can0  46C   [8]  21 62 00 00 00 08 33 35   '!b....35'
 (000.020209)  can0  46C   [8]  22 34 20 33 34 30 30 00   '"4 3400.'
 (000.161738)  can0  46C   [8]  10 00 00 18 C0 00 00 00   '........'
 (000.020180)  can0  46C   [8]  20 07 44 69 73 74 50 75   ' .DistPu'
 (000.020219)  can0  46C   [8]  21 62 00 00 00 08 33 35   '!b....35'
 (000.020222)  can0  46C   [8]  22 35 20 33 34 30 30 00   '"5 3400.'
 (000.030621)  can0  464   [8]  10 00 00 19 73 70 65 65   '....spee'
 (000.020249)  can0  464   [8]  20 64 20 78 20 20 20 30   ' d x   0'
 (000.020243)  can0  464   [8]  21 20 78 31 20 78 20 20   '! x1 x  '
 (000.020219)  can0  464   [8]  22 20 30 20 78 33 20 78   '" 0 x3 x'
 (000.070392)  can0  46C   [8]  10 00 00 18 C0 00 00 00   '........'
 (000.020188)  can0  46C   [8]  20 07 44 69 73 74 50 75   ' .DistPu'
 (000.020210)  can0  46C   [8]  21 62 00 00 00 08 33 35   '!b....35'
 (000.020208)  can0  46C   [8]  22 36 20 33 34 30 30 00   '"6 3400.'
 (000.161733)  can0  46C   [8]  10 00 00 18 C0 00 00 00   '........'
 (000.020162)  can0  46C   [8]  20 07 44 69 73 74 50 75   ' .DistPu'
 (000.020218)  can0  46C   [8]  21 62 00 00 00 08 33 35   '!b....35'
 (000.020250)  can0  46C   [8]  22 37 20 33 34 30 30 00   '"7 3400.'
 (000.000492)  can0  461   [8]  10 00 00 08 00 00 00 6D   '.......m'
 (000.019694)  can0  461   [8]  20 33 34 30 30 98 F6 0C   ' 3400...'
 (000.071681)  can0  464   [8]  10 00 00 19 73 70 65 65   '....spee'
 (000.020402)  can0  464   [8]  20 64 20 78 20 20 20 30   ' d x   0'
 (000.020040)  can0  464   [8]  21 20 78 31 20 78 20 20   '! x1 x  '
 (000.020236)  can0  464   [8]  22 20 30 20 78 33 20 78   '" 0 x3 x'
 (000.049587)  can0  46C   [8]  10 00 00 18 C0 00 00 00   '........'
 (000.020220)  can0  46C   [8]  20 07 44 69 73 74 50 75   ' .DistPu'
 (000.020212)  can0  46C   [8]  21 62 00 00 00 08 33 35   '!b....35'
 (000.020169)  can0  46C   [8]  22 38 20 33 34 30 30 00   '"8 3400.'
 (000.161749)  can0  46C   [8]  10 00 00 18 C0 00 00 00   '........'
 (000.020294)  can0  46C   [8]  20 07 44 69 73 74 50 75   ' .DistPu'
 (000.020075)  can0  46C   [8]  21 62 00 00 00 08 33 35   '!b....35'
 (000.020205)  can0  46C   [8]  22 39 20 33 34 30 30 00   '"9 3400.'
 (000.112717)  can0  464   [8]  10 00 00 19 73 70 65 65   '....spee'
 (000.020267)  can0  464   [8]  20 64 20 78 20 20 20 30   ' d x   0'
 (000.020229)  can0  464   [8]  21 20 78 31 20 78 20 20   '! x1 x  '
 (000.008506)  can0  46C   [8]  10 00 00 18 C0 00 00 00   '........'
 (000.011726)  can0  464   [8]  22 20 30 20 78 33 20 78   '" 0 x3 x'
 (000.008499)  can0  46C   [8]  20 07 44 69 73 74 50 75   ' .DistPu'
 (000.020196)  can0  46C   [8]  21 62 00 00 00 08 33 36   '!b....36'
 (000.020202)  can0  46C   [8]  22 30 20 33 34 30 30 00   '"0 3400.'
 (000.161737)  can0  46C   [8]  10 00 00 18 C0 00 00 00   '........'
 (000.020175)  can0  46C   [8]  20 07 44 69 73 74 50 75   ' .DistPu'
 (000.020307)  can0  46C   [8]  21 62 00 00 00 08 33 36   '!b....36'
 (000.020127)  can0  46C   [8]  22 31 20 33 34 30 30 00   '"1 3400.'
 (000.032333)  can0  464   [8]  10 00 00 24 C0 00 00 00   '...$....'
 (000.020209)  can0  464   [8]  20 03 61 64 63 00 00 00   ' .adc...'
 (000.020225)  can0  464   [8]  21 18 37 2E 37 31 34 32   '!.7.7142'
 (000.020232)  can0  464   [8]  22 20 37 2E 37 37 35 35   '" 7.7755'
 (000.020274)  can0  464   [8]  23 31 30 34 38 35 38 38   '#1048588'
 (000.020221)  can0  464   [8]  24 32 38 31 38 36 00 00   '$28186..'
 (000.028221)  can0  46C   [8]  10 00 00 18 C0 00 00 00   '........'
 (000.012260)  can0  464   [8]  10 00 00 19 73 70 65 65   '....spee'
 (000.007928)  can0  46C   [8]  20 07 44 69 73 74 50 75   ' .DistPu'
 (000.012368)  can0  464   [8]  20 64 20 78 20 20 20 30   ' d x   0'
 (000.007891)  can0  46C   [8]  21 62 00 00 00 08 33 36   '!b....36'
 (000.012311)  can0  464   [8]  21 20 78 31 20 78 20 20   '! x1 x  '
 (000.007888)  can0  46C   [8]  22 32 20 33 34 30 30 00   '"2 3400.'
 (000.012388)  can0  464   [8]  22 20 30 20 78 33 20 78   '" 0 x3 x'
 (000.149446)  can0  46C   [8]  10 00 00 18 C0 00 00 00   '........'
 (000.020060)  can0  46C   [8]  20 07 44 69 73 74 50 75   ' .DistPu'
 (000.020222)  can0  46C   [8]  21 62 00 00 00 08 33 36   '!b....36'
 (000.020201)  can0  46C   [8]  22 33 20 33 34 30 30 00   '"3 3400.'
 (000.161738)  can0  46C   [8]  10 00 00 18 C0 00 00 00   '........'
 (000.020180)  can0  46C   [8]  20 07 44 69 73 74 50 75   ' .DistPu'
 (000.020240)  can0  46C   [8]  21 62 00 00 00 08 33 36   '!b....36'
 (000.020185)  can0  46C   [8]  22 34 20 33 34 30 30 00   '"4 3400.'
 (000.012929)  can0  464   [8]  10 00 00 19 73 70 65 65   '....spee'
 (000.020229)  can0  464   [8]  20 64 20 78 20 20 20 30   ' d x   0'
 (000.020239)  can0  464   [8]  21 20 78 31 20 78 20 20   '! x1 x  '
 (000.020221)  can0  464   [8]  22 20 30 20 78 33 20 78   '" 0 x3 x'
 (000.128538)  can0  46C   [8]  10 00 00 18 C0 00 00 00   '........'
 (000.020197)  can0  46C   [8]  20 07 44 69 73 74 50 75   ' .DistPu'
 (000.020202)  can0  46C   [8]  21 62 00 00 00 08 33 36   '!b....36'
 (000.020281)  can0  46C   [8]  22 35 20 33 34 30 30 00   '"5 3400.'
 (000.161659)  can0  46C   [8]  10 00 00 18 C0 00 00 00   '........'
 (000.020199)  can0  46C   [8]  20 07 44 69 73 74 50 75   ' .DistPu'
 (000.000502)  can0  461   [8]  21 00 00 00 6D 33 34 30   '!...m340'
 (000.019735)  can0  46C   [8]  22 62 00 00 00 08 33 36   '"b....36'
 (000.000479)  can0  461   [8]  10 00 00 08 30 98 F6 0C   '....0...'
 (000.019710)  can0  461   [8]  20 00 0C A9 14 00 00 00   ' .......'
 (000.033729)  can0  464   [8]  10 00 00 19 73 70 65 65   '....spee'
 (000.020286)  can0  464   [8]  20 64 20 78 20 20 20 30   ' d x   0'
 (000.020195)  can0  464   [8]  21 20 78 31 20 78 20 20   '! x1 x  '
 (000.020264)  can0  464   [8]  22 20 30 20 78 33 20 78   '" 0 x3 x'
 (000.087455)  can0  46C   [8]  10 00 00 18 C0 00 00 00   '........'
 (000.020174)  can0  46C   [8]  20 07 44 69 73 74 50 75   ' .DistPu'
 (000.020213)  can0  46C   [8]  21 62 00 00 00 08 33 36   '!b....36'
 (000.020200)  can0  46C   [8]  22 37 20 33 34 30 30 00   '"7 3400.'
 (000.161763)  can0  46C   [8]  10 00 00 18 C0 00 00 00   '........'
 (000.020192)  can0  46C   [8]  20 07 44 69 73 74 50 75   ' .DistPu'
 (000.020211)  can0  46C   [8]  21 62 00 00 00 08 33 36   '!b....36'
 (000.020190)  can0  46C   [8]  22 38 20 33 34 30 30 00   '"8 3400.'
 (000.074790)  can0  464   [8]  10 00 00 19 73 70 65 65   '....spee'
 (000.020233)  can0  464   [8]  20 64 20 78 20 20 20 30   ' d x   0'
 (000.020228)  can0  464   [8]  21 20 78 31 20 78 20 20   '! x1 x  '
 (000.020263)  can0  464   [8]  22 20 30 20 78 33 20 78   '" 0 x3 x'
 (000.026229)  can0  46C   [8]  10 00 00 18 C0 00 00 00   '........'
 (000.020197)  can0  46C   [8]  20 07 44 69 73 74 50 75   ' .DistPu'
 (000.020171)  can0  46C   [8]  21 62 00 00 00 08 33 36   '!b....36'
 (000.020214)  can0  46C   [8]  22 39 20 33 34 30 30 00   '"9 3400.'
 (000.075101)  can0  464   [8]  10 00 00 23 C0 00 00 00   '...#....'
 (000.020222)  can0  464   [8]  20 03 61 64 63 00 00 00   ' .adc...'
 (000.020221)  can0  464   [8]  21 17 37 2E 38 32 35 20   '!.7.825 '
 (000.020337)  can0  464   [8]  22 37 2E 37 38 30 34 35   '"7.78045'
 (000.020129)  can0  464   [8]  23 39 34 33 37 32 39 34   '#9437294'
 (000.005709)  can0  46C   [8]  10 00 00 18 C0 00 00 00   '........'
 (000.014574)  can0  464   [8]  24 35 33 36 38 36 00 00   '$53686..'
 (000.005703)  can0  46C   [8]  20 07 44 69 73 74 50 75   ' .DistPu'
 (000.020209)  can0  46C   [8]  21 62 00 00 00 08 33 37   '!b....37'
 (000.020202)  can0  46C   [8]  22 30 20 33 34 30 30 00   '"0 3400.'
 (000.136016)  can0  464   [8]  10 00 00 19 73 70 65 65   '....spee'
 (000.020216)  can0  464   [8]  20 64 20 78 20 20 20 30   ' d x   0'
 (000.005426)  can0  46C   [8]  10 00 00 18 C0 00 00 00   '........'
 (000.014790)  can0  464   [8]  21 20 78 31 20 78 20 20   '! x1 x  '
 (000.005393)  can0  46C   [8]  20 07 44 69 73 74 50 75   ' .DistPu'
 (000.014837)  can0  464   [8]  22 20 30 20 78 33 20 78   '" 0 x3 x'
 (000.005386)  can0  46C   [8]  21 62 00 00 00 08 33 37   '!b....37'
 (000.020213)  can0  46C   [8]  22 31 20 33 34 30 30 00   '"1 3400.'
 (000.161749)  can0  46C   [8]  10 00 00 18 C0 00 00 00   '........'
 (000.020151)  can0  46C   [8]  20 07 44 69 73 74 50 75   ' .DistPu'
 (000.020217)  can0  46C   [8]  21 62 00 00 00 08 33 37   '!b....37'
 (000.020235)  can0  46C   [8]  22 32 20 33 34 30 30 00   '"2 3400.'
 (000.197310)  can0  464   [8]  10 00 00 19 73 70 65 65   '....spee'
 (000.004869)  can0  46C   [8]  10 00 00 18 C0 00 00 00   '........'
 (000.015334)  can0  464   [8]  20 64 20 78 20 20 20 30   ' d x   0'
 (000.004800)  can0  46C   [8]  20 07 44 69 73 74 50 75   ' .DistPu'
 (000.015424)  can0  464   [8]  21 20 78 31 20 78 20 20   '! x1 x  '
 (000.004791)  can0  46C   [8]  21 62 00 00 00 08 33 37   '!b....37'
 (000.015470)  can0  464   [8]  22 20 30 20 78 33 20 78   '" 0 x3 x'
 (000.004780)  can0  46C   [8]  22 33 20 33 34 30 30 00   '"3 3400.'
 (000.161731)  can0  46C   [8]  10 00 00 18 C0 00 00 00   '........'
 (000.020161)  can0  46C   [8]  20 07 44 69 73 74 50 75   ' .DistPu'
 (000.020252)  can0  46C   [8]  21 62 00 00 00 08 33 37   '!b....37'
 (000.020193)  can0  46C   [8]  22 34 20 33 34 30 30 00   '"4 3400.'
 (000.161708)  can0  46C   [8]  10 00 00 18 C0 00 00 00   '........'
 (000.020207)  can0  46C   [8]  20 07 44 69 73 74 50 75   ' .DistPu'
 (000.000488)  can0  461   [8]  21 00 00 00 6D 33 34 30   '!...m340'
 (000.019716)  can0  46C   [8]  22 62 00 00 00 08 33 37   '"b....37'
 (000.000544)  can0  461   [8]  10 00 00 08 30 98 F6 0C   '....0...'
 (000.015448)  can0  464   [8]  10 00 00 19 73 70 65 65   '....spee'
 (000.004216)  can0  461   [8]  20 00 0C A9 14 00 00 00   ' .......'
 (000.016049)  can0  464   [8]  20 64 20 78 20 20 20 30   ' d x   0'
 (000.020193)  can0  464   [8]  21 20 78 31 20 78 20 20   '! x1 x  '
 (000.020257)  can0  464   [8]  22 20 30 20 78 33 20 78   '" 0 x3 x'
 (000.105372)  can0  46C   [8]  10 00 00 18 C0 00 00 00   '........'
 (000.020022)  can0  46C   [8]  20 07 44 69 73 74 50 75   ' .DistPu'
 (000.020211)  can0  46C   [8]  21 62 00 00 00 08 33 37   '!b....37'
 (000.020246)  can0  46C   [8]  22 36 20 33 34 30 30 00   '"6 3400.'
 (000.161704)  can0  46C   [8]  10 00 00 18 C0 00 00 00   '........'
 (000.020174)  can0  46C   [8]  20 07 44 69 73 74 50 75   ' .DistPu'
 (000.020262)  can0  46C   [8]  21 62 00 00 00 08 33 37   '!b....37'
 (000.020205)  can0  46C   [8]  22 37 20 33 34 30 30 00   '"7 3400.'
 (000.057043)  can0  464   [8]  10 00 00 19 73 70 65 65   '....spee'
 (000.020221)  can0  464   [8]  20 64 20 78 20 20 20 30   ' d x   0'
 (000.020237)  can0  464   [8]  21 20 78 31 20 78 20 20   '! x1 x  '
 (000.020223)  can0  464   [8]  22 20 30 20 78 33 20 78   '" 0 x3 x'
 (000.043961)  can0  46C   [8]  10 00 00 18 C0 00 00 00   '........'
 (000.020243)  can0  46C   [8]  20 07 44 69 73 74 50 75   ' .DistPu'
 (000.020170)  can0  46C   [8]  21 62 00 00 00 08 33 37   '!b....37'
 (000.020229)  can0  46C   [8]  22 38 20 33 34 30 30 00   '"8 3400.'
 (000.181927)  can0  46C   [8]  10 00 00 18 C0 00 00 00   '........'
 (000.020181)  can0  46C   [8]  20 07 44 69 73 74 50 75   ' .DistPu'
 (000.020258)  can0  46C   [8]  21 62 00 00 00 08 33 37   '!b....37'
 (000.020197)  can0  46C   [8]  22 39 20 33 34 30 30 00   '"9 3400.'
 (000.098081)  can0  464   [8]  10 00 00 19 73 70 65 65   '....spee'
 (000.020228)  can0  464   [8]  20 64 20 78 20 20 20 30   ' d x   0'
 (000.020223)  can0  464   [8]  21 20 78 31 20 78 20 20   '! x1 x  '
 (000.020237)  can0  464   [8]  22 20 30 20 78 33 20 78   '" 0 x3 x'
 (000.023177)  can0  46C   [8]  10 00 00 18 C0 00 00 00   '........'
 (000.020171)  can0  46C   [8]  20 07 44 69 73 74 50 75   ' .DistPu'
 (000.020188)  can0  46C   [8]  21 62 00 00 00 08 33 38   '!b....38'
 (000.020204)  can0  46C   [8]  22 30 20 33 34 30 30 00   '"0 3400.'
 (000.181969)  can0  46C   [8]  10 00 00 18 C0 00 00 00   '........'
 (000.020190)  can0  46C   [8]  20 07 44 69 73 74 50 75   ' .DistPu'
 (000.020199)  can0  46C   [8]  21 62 00 00 00 08 33 38   '!b....38'
 (000.020200)  can0  46C   [8]  22 31 20 33 34 30 30 00   '"1 3400.'
 (000.118948)  can0  464   [8]  10 00 00 19 73 70 65 65   '....spee'
 (000.020233)  can0  464   [8]  20 64 20 78 20 20 20 30   ' d x   0'
 (000.020216)  can0  464   [8]  21 20 78 31 20 78 20 20   '! x1 x  '
 (000.002312)  can0  46C   [8]  10 00 00 18 C0 00 00 00   '........'
 (000.017919)  can0  464   [8]  22 20 30 20 78 33 20 78   '" 0 x3 x'
 (000.002272)  can0  46C   [8]  20 07 44 69 73 74 50 75   ' .DistPu'
 (000.020242)  can0  46C   [8]  21 62 00 00 00 08 33 38   '!b....38'
 (000.020188)  can0  46C   [8]  22 32 20 33 34 30 30 00   '"2 3400.'
 (000.161747)  can0  46C   [8]  10 00 00 18 C0 00 00 00   '........'
 (000.020202)  can0  46C   [8]  20 07 44 69 73 74 50 75   ' .DistPu'
 (000.020283)  can0  46C   [8]  21 62 00 00 00 08 33 38   '!b....38'
 (000.020109)  can0  46C   [8]  22 33 20 33 34 30 30 00   '"3 3400.'
 (000.161732)  can0  46C   [8]  10 00 00 18 C0 00 00 00   '........'
 (000.018464)  can0  464   [8]  10 00 00 19 73 70 65 65   '....spee'
 (000.001719)  can0  46C   [8]  20 07 44 69 73 74 50 75   ' .DistPu'
 (000.000507)  can0  461   [8]  21 00 00 00 6D 33 34 30   '!...m340'
 (000.018003)  can0  464   [8]  20 64 20 78 20 20 20 30   ' d x   0'
 (000.001699)  can0  46C   [8]  22 62 00 00 00 08 33 38   '"b....38'
 (000.000512)  can0  461   [8]  10 00 00 08 30 98 F6 0C   '....0...'
 (000.018027)  can0  464   [8]  21 20 78 31 20 78 20 20   '! x1 x  '
 (000.001685)  can0  461   [8]  20 00 78 A6 12 00 00 00   ' .x.....'
 (000.018604)  can0  464   [8]  22 20 30 20 78 33 20 78   '" 0 x3 x'
 (000.143136)  can0  46C   [8]  10 00 00 18 C0 00 00 00   '........'
 (000.020197)  can0  46C   [8]  20 07 44 69 73 74 50 75   ' .DistPu'
 (000.020197)  can0  46C   [8]  21 62 00 00 00 08 33 38   '!b....38'
 (000.020199)  can0  46C   [8]  22 35 20 33 34 30 30 00   '"5 3400.'
 (000.140471)  can0  464   [8]  10 00 00 24 C0 00 00 00   '...$....'
 (000.020055)  can0  464   [8]  20 03 61 64 63 00 00 00   ' .adc...'
 (000.001187)  can0  46C   [8]  10 00 00 18 C0 00 00 00   '........'
 (000.019022)  can0  464   [8]  21 18 37 2E 37 33 34 33   '!.7.7343'
 (000.001175)  can0  46C   [8]  20 07 44 69 73 74 50 75   ' .DistPu'
 (000.019060)  can0  464   [8]  22 20 37 2E 37 37 38 39   '" 7.7789'
 (000.001166)  can0  46C   [8]  21 62 00 00 00 08 33 38   '!b....38'
 (000.019083)  can0  464   [8]  23 34 33 31 34 34 32 30   '#4314420'
 (000.001163)  can0  46C   [8]  22 36 20 33 34 30 30 00   '"6 3400.'
 (000.019111)  can0  464   [8]  24 38 35 37 35 36 00 00   '$85756..'
 (000.142598)  can0  46C   [8]  10 00 00 18 C0 00 00 00   '........'
 (000.020164)  can0  46C   [8]  20 07 44 69 73 74 50 75   ' .DistPu'
 (000.020215)  can0  46C   [8]  21 62 00 00 00 08 33 38   '!b....38'
 (000.020372)  can0  46C   [8]  22 37 20 33 34 30 30 00   '"7 3400.'
 (000.181812)  can0  46C   [8]  10 00 00 18 C0 00 00 00   '........'
 (000.020149)  can0  46C   [8]  20 07 44 69 73 74 50 75   ' .DistPu'
 (000.020214)  can0  46C   [8]  21 62 00 00 00 08 33 38   '!b....38'
 (000.020205)  can0  46C   [8]  22 38 20 33 34 30 30 00   '"8 3400.'
 (000.060200)  can0  464   [8]  10 00 00 19 73 70 65 65   '....spee'
 (000.020224)  can0  464   [8]  20 64 20 78 20 20 20 30   ' d x   0'
 (000.020234)  can0  464   [8]  21 20 78 31 20 78 20 20   '! x1 x  '
 (000.020326)  can0  464   [8]  22 20 30 20 78 33 20 78   '" 0 x3 x'
 (000.040750)  can0  46C   [8]  10 00 00 18 C0 00 00 00   '........'
 (000.020261)  can0  46C   [8]  20 07 44 69 73 74 50 75   ' .DistPu'
 (000.020162)  can0  46C   [8]  21 62 00 00 00 08 33 38   '!b....38'
 (000.020206)  can0  46C   [8]  22 39 20 33 34 30 30 00   '"9 3400.'
 (000.161719)  can0  46C   [8]  10 00 00 18 C0 00 00 00   '........'
 (000.020167)  can0  46C   [8]  20 07 44 69 73 74 50 75   ' .DistPu'
 (000.020240)  can0  46C   [8]  21 62 00 00 00 08 33 39   '!b....39'
 (000.020196)  can0  46C   [8]  22 30 20 33 34 30 30 00   '"0 3400.'
 (000.121438)  can0  464   [8]  10 00 00 19 73 70 65 65   '....spee'
 (000.020258)  can0  464   [8]  20 64 20 78 20 20 20 30   ' d x   0'
 (000.020013)  can0  46C   [8]  10 00 00 18 C0 00 00 00   '........'
 (000.000237)  can0  464   [8]  21 20 78 31 20 78 20 20   '! x1 x  '
 (000.019973)  can0  46C   [8]  20 07 44 69 73 74 50 75   ' .DistPu'
 (000.000225)  can0  464   [8]  22 20 30 20 78 33 20 78   '" 0 x3 x'
 (000.019995)  can0  46C   [8]  21 62 00 00 00 08 33 39   '!b....39'
 (000.020185)  can0  46C   [8]  22 31 20 33 34 30 30 00   '"1 3400.'
 (000.161739)  can0  46C   [8]  10 00 00 18 C0 00 00 00   '........'
 (000.020174)  can0  46C   [8]  20 07 44 69 73 74 50 75   ' .DistPu'
 (000.020218)  can0  46C   [8]  21 62 00 00 00 08 33 39   '!b....39'
 (000.020241)  can0  46C   [8]  22 32 20 33 34 30 30 00   '"2 3400.'
 (000.181916)  can0  46C   [8]  10 00 00 18 C0 00 00 00   '........'
 (000.000741)  can0  464   [8]  10 00 00 19 73 70 65 65   '....spee'
 (000.019466)  can0  46C   [8]  20 07 44 69 73 74 50 75   ' .DistPu'
 (000.000504)  can0  461   [8]  21 00 00 00 6D 33 34 30   '!...m340'
 (000.000275)  can0  464   [8]  20 64 20 78 20 20 20 30   ' d x   0'
 (000.019464)  can0  46C   [8]  22 62 00 00 00 08 33 39   '"b....39'
 (000.000484)  can0  461   [8]  10 00 00 08 30 98 F6 0C   '....0...'
 (000.000334)  can0  464   [8]  21 20 78 31 20 78 20 20   '! x1 x  '
 (000.019375)  can0  461   [8]  20 00 78 A6 12 00 00 00   ' .x.....'
 (000.001144)  can0  464   [8]  22 20 30 20 78 33 20 78   '" 0 x3 x'
 (000.160569)  can0  46C   [8]  10 00 00 18 C0 00 00 00   '........'
 (000.020210)  can0  46C   [8]  20 07 44 69 73 74 50 75   ' .DistPu'
 (000.001061)  can0  464   [8]  10 00 00 24 C0 00 00 00   '...$....'
 (000.019118)  can0  46C   [8]  21 62 00 00 00 08 33 39   '!b....39'
 (000.001105)  can0  464   [8]  20 03 61 64 63 00 00 00   ' .adc...'
 (000.019141)  can0  46C   [8]  22 34 20 33 34 30 30 00   '"4 3400.'
 (000.001102)  can0  464   [8]  21 18 37 2E 37 38 34 37   '!.7.7847'
 (000.020235)  can0  464   [8]  22 20 37 2E 37 37 39 35   '" 7.7795'
 (000.020234)  can0  464   [8]  23 31 38 38 32 39 37 38   '#1882978'
 (000.020266)  can0  464   [8]  24 37 37 31 37 36 00 00   '$77176..'
 (000.099882)  can0  46C   [8]  10 00 00 18 C0 00 00 00   '........'
 (000.020207)  can0  46C   [8]  20 07 44 69 73 74 50 75   ' .DistPu'
 (000.020185)  can0  46C   [8]  21 62 00 00 00 08 33 39   '!b....39'
 (000.020194)  can0  46C   [8]  22 35 20 33 34 30 30 00   '"5 3400.'
 (000.001419)  can0  464   [8]  10 00 00 19 73 70 65 65   '....spee'
 (000.020240)  can0  464   [8]  20 64 20 78 20 20 20 30   ' d x   0'
 (000.020228)  can0  464   [8]  21 20 78 31 20 78 20 20   '! x1 x  '
 (000.020268)  can0  464   [8]  22 20 30 20 78 33 20 78   '" 0 x3 x'
 (000.119800)  can0  46C   [8]  10 00 00 18 C0 00 00 00   '........'
 (000.020200)  can0  46C   [8]  20 07 44 69 73 74 50 75   ' .DistPu'
 (000.020186)  can0  46C   [8]  21 62 00 00 00 08 33 39   '!b....39'
 (000.020200)  can0  46C   [8]  22 36 20 33 34 30 30 00   '"6 3400.'
 (000.161770)  can0  46C   [8]  10 00 00 18 C0 00 00 00   '........'
 (000.020145)  can0  46C   [8]  20 07 44 69 73 74 50 75   ' .DistPu'
 (000.020221)  can0  46C   [8]  21 62 00 00 00 08 33 39   '!b....39'
 (000.020196)  can0  46C   [8]  22 37 20 33 34 30 30 00   '"7 3400.'
 (000.042500)  can0  464   [8]  10 00 00 19 73 70 65 65   '....spee'
 (000.020246)  can0  464   [8]  20 64 20 78 20 20 20 30   ' d x   0'
 (000.020221)  can0  464   [8]  21 20 78 31 20 78 20 20   '! x1 x  '
 (000.020234)  can0  464   [8]  22 20 30 20 78 33 20 78   '" 0 x3 x'
 (000.078749)  can0  46C   [8]  10 00 00 18 C0 00 00 00   '........'
 (000.020178)  can0  46C   [8]  20 07 44 69 73 74 50 75   ' .DistPu'
 (000.020233)  can0  46C   [8]  21 62 00 00 00 08 33 39   '!b....39'
 (000.020234)  can0  46C   [8]  22 38 20 33 34 30 30 00   '"8 3400.'
 (000.161694)  can0  46C   [8]  10 00 00 18 C0 00 00 00   '........'
 (000.020170)  can0  46C   [8]  20 07 44 69 73 74 50 75   ' .DistPu'
 (000.020214)  can0  46C   [8]  21 62 00 00 00 08 33 39   '!b....39'
 (000.020236)  can0  46C   [8]  22 39 20 33 34 30 30 00   '"9 3400.'
 (000.083530)  can0  464   [8]  10 00 00 19 73 70 65 65   '....spee'
 (000.020261)  can0  464   [8]  20 64 20 78 20 20 20 30   ' d x   0'
 (000.020341)  can0  464   [8]  21 20 78 31 20 78 20 20   '! x1 x  '
 (000.020099)  can0  464   [8]  22 20 30 20 78 33 20 78   '" 0 x3 x'
 (000.017478)  can0  46C   [8]  10 00 00 18 C0 00 00 00   '........'
 (000.020178)  can0  46C   [8]  20 07 44 69 73 74 50 75   ' .DistPu'
 (000.020245)  can0  46C   [8]  21 62 00 00 00 08 34 30   '!b....40'
 (000.020206)  can0  46C   [8]  22 30 20 33 34 30 30 00   '"0 3400.'
 (000.161719)  can0  46C   [8]  10 00 00 18 C0 00 00 00   '........'
 (000.020168)  can0  46C   [8]  20 07 44 69 73 74 50 75   ' .DistPu'
 (000.020218)  can0  46C   [8]  21 62 00 00 00 08 34 30   '!b....40'
 (000.020237)  can0  46C   [8]  22 31 20 33 34 30 30 00   '"1 3400.'
 (000.144823)  can0  464   [8]  10 00 00 19 73 70 65 65   '....spee'
 (000.016878)  can0  46C   [8]  10 00 00 18 C0 00 00 00   '........'
 (000.003292)  can0  464   [8]  20 64 20 78 20 20 20 30   ' d x   0'
 (000.016898)  can0  46C   [8]  20 07 44 69 73 74 50 75   ' .DistPu'
 (000.000517)  can0  461   [8]  21 00 00 00 6D 33 34 30   '!...m340'
 (000.002813)  can0  464   [8]  21 20 78 31 20 78 20 20   '! x1 x  '
 (000.016922)  can0  46C   [8]  22 62 00 00 00 08 34 30   '"b....40'
 (000.000487)  can0  461   [8]  10 00 00 08 30 98 F6 0C   '....0...'
 (000.002829)  can0  464   [8]  22 20 30 20 78 33 20 78   '" 0 x3 x'
 (000.016905)  can0  461   [8]  20 00 78 A6 12 00 00 00   ' .x.....'
 (000.023631)  can0  464   [8]  10 00 00 24 C0 00 00 00   '...$....'
 (000.020196)  can0  464   [8]  20 03 61 64 63 00 00 00   ' .adc...'
 (000.020219)  can0  464   [8]  21 18 37 2E 38 31 34 39   '!.7.8149'
 (000.020272)  can0  464   [8]  22 20 37 2E 37 38 33 30   '" 7.7830'
 (000.020271)  can0  464   [8]  23 35 36 39 34 36 38 30   '#5694680'
 (000.020190)  can0  464   [8]  24 38 39 34 35 36 00 00   '$89456..'
 (000.036914)  can0  46C   [8]  10 00 00 18 C0 00 00 00   '........'
 (000.020212)  can0  46C   [8]  20 07 44 69 73 74 50 75   ' .DistPu'
 (000.020366)  can0  46C   [8]  21 62 00 00 00 08 34 30   '!b....40'
 (000.020025)  can0  46C   [8]  22 33 20 33 34 30 30 00   '"3 3400.'
 (000.181977)  can0  46C   [8]  10 00 00 18 C0 00 00 00   '........'
 (000.020153)  can0  46C   [8]  20 07 44 69 73 74 50 75   ' .DistPu'
 (000.003906)  can0  464   [8]  10 00 00 19 73 70 65 65   '....spee'
 (000.016306)  can0  46C   [8]  21 62 00 00 00 08 34 30   '!b....40'
 (000.003932)  can0  464   [8]  20 64 20 78 20 20 20 30   ' d x   0'
 (000.016266)  can0  46C   [8]  22 34 20 33 34 30 30 00   '"4 3400.'
 (000.003977)  can0  464   [8]  21 20 78 31 20 78 20 20   '! x1 x  '
 (000.020236)  can0  464   [8]  22 20 30 20 78 33 20 78   '" 0 x3 x'
 (000.137527)  can0  46C   [8]  10 00 00 18 C0 00 00 00   '........'
 (000.020204)  can0  46C   [8]  20 07 44 69 73 74 50 75   ' .DistPu'
 (000.020216)  can0  46C   [8]  21 62 00 00 00 08 34 30   '!b....40'
 (000.020211)  can0  46C   [8]  22 35 20 33 34 30 30 00   '"5 3400.'
 (000.181949)  can0  46C   [8]  10 00 00 18 C0 00 00 00   '........'
 (000.020158)  can0  46C   [8]  20 07 44 69 73 74 50 75   ' .DistPu'
 (000.020200)  can0  46C   [8]  21 62 00 00 00 08 34 30   '!b....40'
 (000.020207)  can0  46C   [8]  22 36 20 33 34 30 30 00   '"6 3400.'
 (000.004563)  can0  464   [8]  10 00 00 19 73 70 65 65   '....spee'
 (000.020252)  can0  464   [8]  20 64 20 78 20 20 20 30   ' d x   0'
 (000.020212)  can0  464   [8]  21 20 78 31 20 78 20 20   '! x1 x  '
 (000.020277)  can0  464   [8]  22 20 30 20 78 33 20 78   '" 0 x3 x'
 (000.096458)  can0  46C   [8]  10 00 00 18 C0 00 00 00   '........'
 (000.020167)  can0  46C   [8]  20 07 44 69 73 74 50 75   ' .DistPu'
 (000.020205)  can0  46C   [8]  21 62 00 00 00 08 34 30   '!b....40'
 (000.020259)  can0  46C   [8]  22 37 20 33 34 30 30 00   '"7 3400.'
 (000.161710)  can0  46C   [8]  10 00 00 18 C0 00 00 00   '........'
 (000.020175)  can0  46C   [8]  20 07 44 69 73 74 50 75   ' .DistPu'
 (000.020223)  can0  46C   [8]  21 62 00 00 00 08 34 30   '!b....40'
 (000.020199)  can0  46C   [8]  22 38 20 33 34 30 30 00   '"8 3400.'
 (000.065813)  can0  464   [8]  10 00 00 19 73 70 65 65   '....spee'
 (000.020232)  can0  464   [8]  20 64 20 78 20 20 20 30   ' d x   0'
 (000.020227)  can0  464   [8]  21 20 78 31 20 78 20 20   '! x1 x  '
 (000.020229)  can0  464   [8]  22 20 30 20 78 33 20 78   '" 0 x3 x'
 (000.035246)  can0  46C   [8]  10 00 00 18 C0 00 00 00   '........'
 (000.020289)  can0  46C   [8]  20 07 44 69 73 74 50 75   ' .DistPu'
 (000.020094)  can0  46C   [8]  21 62 00 00 00 08 34 30   '!b....40'
 (000.020188)  can0  46C   [8]  22 39 20 33 34 30 30 00   '"9 3400.'
 (000.161735)  can0  46C   [8]  10 00 00 18 C0 00 00 00   '........'
 (000.020186)  can0  46C   [8]  20 07 44 69 73 74 50 75   ' .DistPu'
 (000.020221)  can0  46C   [8]  21 62 00 00 00 08 34 31   '!b....41'
 (000.020206)  can0  46C   [8]  22 30 20 33 34 30 30 00   '"0 3400.'
 (000.066419)  can0  464   [8]  10 00 00 24 C0 00 00 00   '...$....'
 (000.020173)  can0  464   [8]  20 03 61 64 63 00 00 00   ' .adc...'
 (000.020225)  can0  464   [8]  21 18 37 2E 37 31 34 32   '!.7.7142'
 (000.020240)  can0  464   [8]  22 20 37 2E 37 37 36 31   '" 7.7761'
 (000.020259)  can0  464   [8]  23 37 31 32 35 32 31 32   '#7125212'
 (000.014410)  can0  46C   [8]  10 00 00 18 C0 00 00 00   '........'
 (000.005820)  can0  464   [8]  24 38 30 35 31 36 00 00   '$80516..'
 (000.014399)  can0  46C   [8]  20 07 44 69 73 74 50 75   ' .DistPu'
 (000.020189)  can0  46C   [8]  21 62 00 00 00 08 34 31   '!b....41'
 (000.020283)  can0  46C   [8]  22 31 20 33 34 30 30 00   '"1 3400.'
 (000.000442)  can0  461   [8]  10 00 00 08 00 00 00 6D   '.......m'
 (000.019704)  can0  461   [8]  20 33 34 30 30 98 F6 0C   ' 3400...'
 (000.161734)  can0  46C   [8]  10 00 00 18 C0 00 00 00   '........'
 (000.020194)  can0  46C   [8]  20 07 44 69 73 74 50 75   ' .DistPu'
 (000.020192)  can0  46C   [8]  21 62 00 00 00 08 34 31   '!b....41'
 (000.020203)  can0  46C   [8]  22 32 20 33 34 30 30 00   '"2 3400.'
 (000.161748)  can0  46C   [8]  10 00 00 18 C0 00 00 00   '........'
 (000.006375)  can0  464   [8]  10 00 00 19 73 70 65 65   '....spee'
 (000.013782)  can0  46C   [8]  20 07 44 69 73 74 50 75   ' .DistPu'
 (000.006467)  can0  464   [8]  20 64 20 78 20 20 20 30   ' d x   0'
 (000.013794)  can0  46C   [8]  21 62 00 00 00 08 34 31   '!b....41'
 (000.006476)  can0  464   [8]  21 20 78 31 20 78 20 20   '! x1 x  '
 (000.013701)  can0  46C   [8]  22 33 20 33 34 30 30 00   '"3 3400.'
 (000.006505)  can0  464   [8]  22 20 30 20 78 33 20 78   '" 0 x3 x'
 (000.175446)  can0  46C   [8]  10 00 00 18 C0 00 00 00   '........'
 (000.020249)  can0  46C   [8]  20 07 44 69 73 74 50 75   ' .DistPu'
 (000.020174)  can0  46C   [8]  21 62 00 00 00 08 34 31   '!b....41'
 (000.020184)  can0  46C   [8]  22 34 20 33 34 30 30 00   '"4 3400.'
 (000.161739)  can0  46C   [8]  10 00 00 18 C0 00 00 00   '........'
 (000.020218)  can0  46C   [8]  20 07 44 69 73 74 50 75   ' .DistPu'
 (000.020176)  can0  46C   [8]  21 62 00 00 00 08 34 31   '!b....41'
 (000.007073)  can0  464   [8]  10 00 00 19 73 70 65 65   '....spee'
 (000.013116)  can0  46C   [8]  22 35 20 33 34 30 30 00   '"5 3400.'
 (000.007105)  can0  464   [8]  20 64 20 78 20 20 20 30   ' d x   0'
 (000.020240)  can0  464   [8]  21 20 78 31 20 78 20 20   '! x1 x  '
 (000.020261)  can0  464   [8]  22 20 30 20 78 33 20 78   '" 0 x3 x'
 (000.114171)  can0  46C   [8]  10 00 00 18 C0 00 00 00   '........'
 (000.020151)  can0  46C   [8]  20 07 44 69 73 74 50 75   ' .DistPu'
 (000.020202)  can0  46C   [8]  21 62 00 00 00 08 34 31   '!b....41'
 (000.020218)  can0  46C   [8]  22 36 20 33 34 30 30 00   '"6 3400.'
 (000.161727)  can0  46C   [8]  10 00 00 18 C0 00 00 00   '........'
 (000.020190)  can0  46C   [8]  20 07 44 69 73 74 50 75   ' .DistPu'
 (000.020207)  can0  46C   [8]  21 62 00 00 00 08 34 31   '!b....41'
 (000.020198)  can0  46C   [8]  22 37 20 33 34 30 30 00   '"7 3400.'
 (000.048149)  can0  464   [8]  10 00 00 19 73 70 65 65   '....spee'
 (000.020231)  can0  464   [8]  20 64 20 78 20 20 20 30   ' d x   0'
 (000.020232)  can0  464   [8]  21 20 78 31 20 78 20 20   '! x1 x  '
 (000.020266)  can0  464   [8]  22 20 30 20 78 33 20 78   '" 0 x3 x'
 (000.052858)  can0  46C   [8]  10 00 00 18 C0 00 00 00   '........'
 (000.020189)  can0  46C   [8]  20 07 44 69 73 74 50 75   ' .DistPu'
 (000.020208)  can0  46C   [8]  21 62 00 00 00 08 34 31   '!b....41'
 (000.020205)  can0  46C   [8]  22 38 20 33 34 30 30 00   '"8 3400.'
 (000.129458)  can0  464   [8]  10 00 00 24 C0 00 00 00   '...$....'
 (000.020166)  can0  464   [8]  20 03 61 64 63 00 00 00   ' .adc...'
 (000.012101)  can0  46C   [8]  10 00 00 18 C0 00 00 00   '........'
 (000.008109)  can0  464   [8]  21 18 37 2E 37 38 34 37   '!.7.7847'
 (000.012082)  can0  46C   [8]  20 07 44 69 73 74 50 75   ' .DistPu'
 (000.008148)  can0  464   [8]  22 20 37 2E 37 37 37 30   '" 7.7770'
 (000.012083)  can0  46C   [8]  21 62 00 00 00 08 34 31   '!b....41'
 (000.008218)  can0  464   [8]  23 32 34 31 32 36 39 31   '#2412691'
 (000.012002)  can0  46C   [8]  22 39 20 33 34 30 30 00   '"9 3400.'
 (000.008210)  can0  464   [8]  24 35 32 34 35 36 00 00   '$52456..'
 (000.101197)  can0  464   [8]  10 00 00 19 73 70 65 65   '....spee'
 (000.020240)  can0  464   [8]  20 64 20 78 20 20 20 30   ' d x   0'
 (000.020224)  can0  464   [8]  21 20 78 31 20 78 20 20   '! x1 x  '
 (000.020226)  can0  464   [8]  22 20 30 20 78 33 20 78   '" 0 x3 x'
 (000.011812)  can0  46C   [8]  10 00 00 18 C0 00 00 00   '........'
 (000.020225)  can0  46C   [8]  20 07 44 69 73 74 50 75   ' .DistPu'
 (000.020203)  can0  46C   [8]  21 62 00 00 00 08 34 32   '!b....42'
 (000.000490)  can0  461   [8]  22 00 00 00 6D 33 34 30   '"...m340'
 (000.019699)  can0  46C   [8]  10 00 00 18 30 20 33 34   '....0 34'
 (000.020217)  can0  46C   [8]  20 30 30 00 00 00 00 00   ' 00.....'
 (000.020240)  can0  46C   [8]  21 00 00 00 00 00 00 00   '!.......'
 (000.020226)  can0  46C   [8]  22 00 00 00 00 00 00 00   '".......'
 (000.121275)  can0  46C   [8]  10 00 00 18 C0 00 00 00   '........'
 (000.020200)  can0  46C   [8]  20 07 44 69 73 74 50 75   ' .DistPu'
 (000.020189)  can0  46C   [8]  21 62 00 00 00 08 34 32   '!b....42'
 (000.020201)  can0  46C   [8]  22 31 20 33 34 30 30 00   '"1 3400.'
 (000.130339)  can0  464   [8]  10 00 00 19 73 70 65 65   '....spee'
 (000.020175)  can0  464   [8]  20 64 20 78 20 20 20 30   ' d x   0'
 (000.011207)  can0  46C   [8]  10 00 00 18 C0 00 00 00   '........'
 (000.009004)  can0  464   [8]  21 20 78 31 20 78 20 20   '! x1 x  '
 (000.011198)  can0  46C   [8]  20 07 44 69 73 74 50 75   ' .DistPu'
 (000.009033)  can0  464   [8]  22 20 30 20 78 33 20 78   '" 0 x3 x'
 (000.011188)  can0  46C   [8]  21 62 00 00 00 08 34 32   '!b....42'
 (000.020205)  can0  46C   [8]  22 32 20 33 34 30 30 00   '"2 3400.'
 (000.161741)  can0  46C   [8]  10 00 00 18 C0 00 00 00   '........'
 (000.020171)  can0  46C   [8]  20 07 44 69 73 74 50 75   ' .DistPu'
 (000.020202)  can0  46C   [8]  21 62 00 00 00 08 34 32   '!b....42'
 (000.020237)  can0  46C   [8]  22 33 20 33 34 30 30 00   '"3 3400.'
 (000.161712)  can0  46C   [8]  10 00 00 18 C0 00 00 00   '........'
 (000.020187)  can0  46C   [8]  20 07 44 69 73 74 50 75   ' .DistPu'
 (000.009581)  can0  464   [8]  10 00 00 19 73 70 65 65   '....spee'
 (000.010643)  can0  46C   [8]  21 62 00 00 00 08 34 32   '!b....42'
 (000.009649)  can0  464   [8]  20 64 20 78 20 20 20 30   ' d x   0'
 (000.010721)  can0  46C   [8]  22 34 20 33 34 30 30 00   '"4 3400.'
 (000.009484)  can0  464   [8]  21 20 78 31 20 78 20 20   '! x1 x  '
 (000.020242)  can0  464   [8]  22 20 30 20 78 33 20 78   '" 0 x3 x'
 (000.131844)  can0  46C   [8]  10 00 00 18 C0 00 00 00   '........'
 (000.020171)  can0  46C   [8]  20 07 44 69 73 74 50 75   ' .DistPu'
 (000.020239)  can0  46C   [8]  21 62 00 00 00 08 34 32   '!b....42'
 (000.020181)  can0  46C   [8]  22 35 20 33 34 30 30 00   '"5 3400.'
 (000.161734)  can0  46C   [8]  10 00 00 18 C0 00 00 00   '........'
 (000.020179)  can0  46C   [8]  20 07 44 69 73 74 50 75   ' .DistPu'
 (000.020240)  can0  46C   [8]  21 62 00 00 00 08 34 32   '!b....42'
 (000.020262)  can0  46C   [8]  22 36 20 33 34 30 30 00   '"6 3400.'
 (000.030394)  can0  464   [8]  10 00 00 19 73 70 65 65   '....spee'
 (000.020206)  can0  464   [8]  20 64 20 78 20 20 20 30   ' d x   0'
 (000.020236)  can0  464   [8]  21 20 78 31 20 78 20 20   '! x1 x  '
 (000.020253)  can0  464   [8]  22 20 30 20 78 33 20 78   '" 0 x3 x'
 (000.070600)  can0  46C   [8]  10 00 00 18 C0 00 00 00   '........'
 (000.010365)  can0  464   [8]  10 00 00 23 C0 00 00 00   '...#....'
 (000.009777)  can0  46C   [8]  20 07 44 69 73 74 50 75   ' .DistPu'
 (000.010424)  can0  464   [8]  20 03 61 64 63 00 00 00   ' .adc...'
 (000.009793)  can0  46C   [8]  21 62 00 00 00 08 34 32   '!b....42'
 (000.010512)  can0  464   [8]  21 17 37 2E 38 32 35 20   '!.7.825 '
 (000.009846)  can0  46C   [8]  22 37 20 33 34 30 30 00   '"7 3400.'
 (000.010325)  can0  464   [8]  22 37 2E 37 38 31 38 32   '"7.78182'
 (000.020254)  can0  464   [8]  23 31 37 31 34 32 32 33   '#1714223'
 (000.020238)  can0  464   [8]  24 37 32 31 35 36 00 00   '$72156..'
 (000.131000)  can0  46C   [8]  10 00 00 18 C0 00 00 00   '........'
 (000.020167)  can0  46C   [8]  20 07 44 69 73 74 50 75   ' .DistPu'
 (000.020236)  can0  46C   [8]  21 62 00 00 00 08 34 32   '!b....42'
 (000.020184)  can0  46C   [8]  22 38 20 33 34 30 30 00   '"8 3400.'
 (000.071524)  can0  464   [8]  10 00 00 19 73 70 65 65   '....spee'
 (000.020235)  can0  464   [8]  20 64 20 78 20 20 20 30   ' d x   0'
 (000.020228)  can0  464   [8]  21 20 78 31 20 78 20 20   '! x1 x  '
 (000.020241)  can0  464   [8]  22 20 30 20 78 33 20 78   '" 0 x3 x'
 (000.029514)  can0  46C   [8]  10 00 00 18 C0 00 00 00   '........'
 (000.020197)  can0  46C   [8]  20 07 44 69 73 74 50 75   ' .DistPu'
 (000.020205)  can0  46C   [8]  21 62 00 00 00 08 34 32   '!b....42'
 (000.000507)  can0  461   [8]  22 00 00 00 6D 33 34 30   '"...m340'
 (000.019701)  can0  46C   [8]  10 00 00 18 39 20 33 34   '....9 34'
 (000.020206)  can0  46C   [8]  20 30 30 00 00 00 00 00   ' 00.....'
 (000.020241)  can0  46C   [8]  21 00 00 00 00 00 00 00   '!.......'
 (000.020242)  can0  46C   [8]  22 00 00 00 00 00 00 00   '".......'
 (000.101041)  can0  46C   [8]  10 00 00 18 C0 00 00 00   '........'
 (000.020199)  can0  46C   [8]  20 07 44 69 73 74 50 75   ' .DistPu'
 (000.020188)  can0  46C   [8]  21 62 00 00 00 08 34 33   '!b....43'
 (000.020205)  can0  46C   [8]  22 30 20 33 34 30 30 00   '"0 3400.'
 (000.132832)  can0  464   [8]  10 00 00 19 73 70 65 65   '....spee'
 (000.020224)  can0  464   [8]  20 64 20 78 20 20 20 30   ' d x   0'
 (000.008699)  can0  46C   [8]  10 00 00 18 C0 00 00 00   '........'
 (000.011750)  can0  464   [8]  21 20 78 31 20 78 20 20   '! x1 x  '
 (000.008426)  can0  46C   [8]  20 07 44 69 73 74 50 75   ' .DistPu'
 (000.011558)  can0  464   [8]  22 20 30 20 78 33 20 78   '" 0 x3 x'
 (000.008647)  can0  46C   [8]  21 62 00 00 00 08 34 33   '!b....43'
 (000.020203)  can0  46C   [8]  22 31 20 33 34 30 30 00   '"1 3400.'
 (000.161761)  can0  46C   [8]  10 00 00 18 C0 00 00 00   '........'
 (000.020178)  can0  46C   [8]  20 07 44 69 73 74 50 75   ' .DistPu'
 (000.020228)  can0  46C   [8]  21 62 00 00 00 08 34 33   '!b....43'
 (000.020169)  can0  46C   [8]  22 32 20 33 34 30 30 00   '"2 3400.'
 (000.161748)  can0  46C   [8]  10 00 00 18 C0 00 00 00   '........'
 (000.020173)  can0  46C   [8]  20 07 44 69 73 74 50 75   ' .DistPu'
 (000.012116)  can0  464   [8]  10 00 00 19 73 70 65 65   '....spee'
 (000.008097)  can0  46C   [8]  21 62 00 00 00 08 34 33   '!b....43'
 (000.012179)  can0  464   [8]  20 64 20 78 20 20 20 30   ' d x   0'
 (000.008042)  can0  46C   [8]  22 33 20 33 34 30 30 00   '"3 3400.'
 (000.012166)  can0  464   [8]  21 20 78 31 20 78 20 20   '! x1 x  '
 (000.020262)  can0  464   [8]  22 20 30 20 78 33 20 78   '" 0 x3 x'
 (000.129295)  can0  46C   [8]  10 00 00 18 C0 00 00 00   '........'
 (000.020180)  can0  46C   [8]  20 07 44 69 73 74 50 75   ' .DistPu'
 (000.020252)  can0  46C   [8]  21 62 00 00 00 08 34 33   '!b....43'
 (000.020230)  can0  46C   [8]  22 34 20 33 34 30 30 00   '"4 3400.'
 (000.161684)  can0  46C   [8]  10 00 00 18 C0 00 00 00   '........'
 (000.020179)  can0  46C   [8]  20 07 44 69 73 74 50 75   ' .DistPu'
 (000.020210)  can0  46C   [8]  21 62 00 00 00 08 34 33   '!b....43'
 (000.020293)  can0  46C   [8]  22 35 20 33 34 30 30 00   '"5 3400.'
 (000.012649)  can0  464   [8]  10 00 00 23 C0 00 00 00   '...#....'
 (000.020253)  can0  464   [8]  20 03 61 64 63 00 00 00   ' .adc...'
 (000.020211)  can0  464   [8]  21 17 37 2E 37 39 34 38   '!.7.7948'
 (000.020276)  can0  464   [8]  22 20 37 2E 37 38 33 31   '" 7.7831'
 (000.020199)  can0  464   [8]  23 31 39 35 34 32 38 30   '#1954280'
 (000.020256)  can0  464   [8]  24 31 33 35 35 36 00 00   '$13556..'
 (000.047821)  can0  46C   [8]  10 00 00 18 C0 00 00 00   '........'
 (000.020180)  can0  46C   [8]  20 07 44 69 73 74 50 75   ' .DistPu'
 (000.020219)  can0  46C   [8]  21 62 00 00 00 08 34 33   '!b....43'
 (000.020234)  can0  46C   [8]  22 36 20 33 34 30 30 00   '"6 3400.'
 (000.181993)  can0  46C   [8]  10 00 00 18 C0 00 00 00   '........'
 (000.020095)  can0  46C   [8]  20 07 44 69 73 74 50 75   ' .DistPu'
 (000.020220)  can0  46C   [8]  21 62 00 00 00 08 34 33   '!b....43'
 (000.020209)  can0  46C   [8]  22 37 20 33 34 30 30 00   '"7 3400.'
 (000.074009)  can0  464   [8]  10 00 00 19 73 70 65 65   '....spee'
 (000.020268)  can0  464   [8]  20 64 20 78 20 20 20 30   ' d x   0'
 (000.020194)  can0  464   [8]  21 20 78 31 20 78 20 20   '! x1 x  '
 (000.020228)  can0  464   [8]  22 20 30 20 78 33 20 78   '" 0 x3 x'
 (000.027056)  can0  46C   [8]  10 00 00 18 C0 00 00 00   '........'
 (000.020178)  can0  46C   [8]  20 07 44 69 73 74 50 75   ' .DistPu'
 (000.020190)  can0  46C   [8]  21 62 00 00 00 08 34 33   '!b....43'
 (000.020204)  can0  46C   [8]  22 38 20 33 34 30 30 00   '"8 3400.'
 (000.020223)  can0  461   [8]  10 00 00 08 00 00 00 6D   '.......m'
 (000.020238)  can0  461   [8]  20 33 34 30 30 98 F6 0C   ' 3400...'
 (000.141505)  can0  46C   [8]  10 00 00 18 C0 00 00 00   '........'
 (000.020164)  can0  46C   [8]  20 07 44 69 73 74 50 75   ' .DistPu'
 (000.020210)  can0  46C   [8]  21 62 00 00 00 08 34 33   '!b....43'
 (000.020312)  can0  46C   [8]  22 39 20 33 34 30 30 00   '"9 3400.'
 (000.114985)  can0  464   [8]  10 00 00 19 73 70 65 65   '....spee'
 (000.046646)  can0  46C   [8]  10 00 00 18 C0 00 00 00   '........'
 (000.020174)  can0  46C   [8]  20 07 44 69 73 74 50 75   ' .DistPu'
 (000.020218)  can0  46C   [8]  21 62 00 00 00 08 34 34   '!b....44'
 (000.020211)  can0  46C   [8]  22 30 20 33 34 30 30 00   '"0 3400.'
 (000.161746)  can0  46C   [8]  10 00 00 18 C0 00 00 00   '........'
 (000.020162)  can0  46C   [8]  20 07 44 69 73 74 50 75   ' .DistPu'
 (000.020221)  can0  46C   [8]  21 62 00 00 00 08 34 34   '!b....44'
 (000.020210)  can0  46C   [8]  22 31 20 33 34 30 30 00   '"1 3400.'
 (000.161732)  can0  46C   [8]  10 00 00 18 C0 00 00 00   '........'
 (000.020173)  can0  46C   [8]  20 07 44 69 73 74 50 75   ' .DistPu'
 (000.020251)  can0  46C   [8]  21 62 00 00 00 08 34 34   '!b....44'
 (000.020183)  can0  46C   [8]  22 32 20 33 34 30 30 00   '"2 3400.'
 (000.161756)  can0  46C   [8]  10 00 00 18 C0 00 00 00   '........'
 (000.020218)  can0  46C   [8]  20 07 44 69 73 74 50 75   ' .DistPu'
 (000.020169)  can0  46C   [8]  21 62 00 00 00 08 34 34   '!b....44'
 (000.020197)  can0  46C   [8]  22 33 20 33 34 30 30 00   '"3 3400.'
 (000.161741)  can0  46C   [8]  10 00 00 18 C0 00 00 00   '........'
 (000.020259)  can0  46C   [8]  20 07 44 69 73 74 50 75   ' .DistPu'
 (000.020135)  can0  46C   [8]  21 62 00 00 00 08 34 34   '!b....44'
 (000.020196)  can0  46C   [8]  22 34 20 33 34 30 30 00   '"4 3400.'
 (000.181957)  can0  46C   [8]  10 00 00 18 C0 00 00 00   '........'
 (000.020166)  can0  46C   [8]  20 07 44 69 73 74 50 75   ' .DistPu'
 (000.020214)  can0  46C   [8]  21 62 00 00 00 08 34 34   '!b....44'
 (000.020267)  can0  46C   [8]  22 35 20 33 34 30 30 00   '"5 3400.'
 (000.181894)  can0  46C   [8]  10 00 00 18 C0 00 00 00   '........'
 (000.020174)  can0  46C   [8]  20 07 44 69 73 74 50 75   ' .DistPu'
 (000.020272)  can0  46C   [8]  21 62 00 00 00 08 34 34   '!b....44'
 (000.020156)  can0  46C   [8]  22 36 20 33 34 30 30 00   '"6 3400.'
 (000.161732)  can0  46C   [8]  10 00 00 18 C0 00 00 00   '........'
 (000.020182)  can0  46C   [8]  20 07 44 69 73 74 50 75   ' .DistPu'
 (000.020261)  can0  46C   [8]  21 62 00 00 00 08 34 34   '!b....44'
 (000.020218)  can0  46C   [8]  22 37 20 33 34 30 30 00   '"7 3400.'
 (000.000483)  can0  461   [8]  10 00 00 08 00 00 00 6D   '.......m'
 (000.019693)  can0  461   [8]  20 33 34 30 30 98 F6 0C   ' 3400...'
 (000.141511)  can0  46C   [8]  10 00 00 18 C0 00 00 00   '........'
 (000.020174)  can0  46C   [8]  20 07 44 69 73 74 50 75   ' .DistPu'
 (000.020211)  can0  46C   [8]  21 62 00 00 00 08 34 34   '!b....44'
 (000.020207)  can0  46C   [8]  22 38 20 33 34 30 30 00   '"8 3400.'
 (000.161954)  can0  46C   [8]  10 00 00 18 C0 00 00 00   '........'
 (000.019965)  can0  46C   [8]  20 07 44 69 73 74 50 75   ' .DistPu'
 (000.020207)  can0  46C   [8]  21 62 00 00 00 08 34 34   '!b....44'
 (000.020222)  can0  46C   [8]  22 39 20 33 34 30 30 00   '"9 3400.'
